Time Stamp,ID,Extended,Dir,Bus,LEN,D1,D2,D3,D4,D5,D6,D7,D8
930626,000004C0,false,Rx,0,8,40,01,FF,FF,FF,FF,FF,FF,
932259,00000130,false,Rx,0,5,00,01,D0,1F,B7,00,00,00,
934654,00000130,false,Rx,0,5,00,01,C0,1F,B8,00,00,00,
936414,000004ED,false,Rx,0,8,6D,01,FF,FF,FF,FF,FF,FF,
937821,000004E0,false,Rx,0,8,60,01,FF,FF,FF,FF,FF,FF,
939066,000004F2,false,Rx,0,8,72,01,FE,FF,FF,FF,FF,FF,
942423,000004D6,false,Rx,0,8,56,01,FF,FF,FF,FF,FF,FF,
950578,000003BD,false,Rx,0,2,FD,FF,00,00,00,00,00,00,
955695,000004E2,false,Rx,0,8,62,01,FE,FF,FF,FF,FF,FF,
977701,000004E7,false,Rx,0,8,67,01,FE,FF,FF,FF,FF,FF,
979304,000004E1,false,Rx,0,8,61,01,FE,FF,FF,FF,FF,FF,
983261,00000130,false,Rx,0,5,00,01,80,3F,99,00,00,00,
992550,000004F3,false,Rx,0,8,73,01,FE,FF,FF,FF,FF,FF,
997347,000003B3,false,Rx,0,6,11,00,FF,7F,00,F1,00,00,
1004791,000004C1,false,Rx,0,8,41,01,FE,FF,FF,FF,FF,FF,
1007144,00000480,false,Rx,0,8,00,01,FE,FF,FF,FF,FF,FF,
1011223,000003BE,false,Rx,0,2,9E,F0,00,00,00,00,00,00,
1024321,000004F8,false,Rx,0,8,78,01,FE,FF,FF,FF,FF,FF,
1033297,00000130,false,Rx,0,5,00,E1,80,3F,9A,00,00,00,
1036410,000004ED,false,Rx,0,8,72,12,FF,FF,FF,FF,FF,FF,
1109065,00000130,false,Rx,0,5,40,41,82,3F,6B,00,00,00,
1122839,000004F2,false,Rx,0,8,73,02,FE,FF,00,40,00,00,
1133330,00000130,false,Rx,0,5,40,41,82,3F,8C,00,00,00,
1157562,000003B3,false,Rx,0,6,11,00,FF,7F,00,F1,00,00,
1189033,00000130,false,Rx,0,5,40,41,82,1F,7D,00,00,00,
1207962,000003BE,false,Rx,0,2,9E,F0,00,00,00,00,00,00,
1213250,000004F3,false,Rx,0,8,78,12,FE,FF,FF,FF,FF,FF,
1233324,00000130,false,Rx,0,5,40,41,82,1F,8E,00,00,00,
1268384,00000130,false,Rx,0,5,41,41,81,1F,90,00,00,00,
1320542,000003B3,false,Rx,0,6,11,00,FF,7F,00,F1,00,00,
1322332,000003BE,false,Rx,0,2,FE,FF,00,00,00,00,00,00,
1334038,00000130,false,Rx,0,5,41,41,81,1F,A1,00,00,00,
1342800,00000481,false,Rx,0,8,01,01,FF,FF,FF,FF,FF,FF,
1344011,000004F8,false,Rx,0,8,6D,12,FE,FF,FF,FF,FF,FF,
1347020,00000480,false,Rx,0,8,01,01,FE,FF,FF,FF,FF,FF,
1349474,000004C0,false,Rx,0,8,41,01,FF,FF,FF,FF,FF,FF,
1352306,000004D6,false,Rx,0,8,61,01,FF,FF,FF,FF,FF,FF,
1355565,000004E2,false,Rx,0,8,67,01,FE,FF,FF,FF,FF,FF,
1357464,000004E0,false,Rx,0,8,61,01,FF,FF,FF,FF,FF,FF,
1359238,000004E1,false,Rx,0,8,62,01,FE,FF,FF,FF,FF,FF,
1360467,000004C1,false,Rx,0,8,56,01,FE,FF,FF,FF,FF,FF,
1361649,000004E7,false,Rx,0,8,6D,11,FE,FF,FF,FF,FF,FF,
1362914,00000481,false,Rx,0,8,40,01,FF,FF,FF,FF,FF,FF,
1434030,00000130,false,Rx,0,5,41,41,81,1F,B2,00,00,00,
1436447,000004ED,false,Rx,0,8,72,02,FE,FF,FF,FF,FF,FF,
1508868,000003BE,false,Rx,0,2,FE,FF,00,00,00,00,00,00,
1518974,000004F2,false,Rx,0,8,73,02,FE,FF,00,40,00,00,
1533190,00000130,false,Rx,0,5,41,41,81,1F,C3,00,00,00,
1612508,000004F3,false,Rx,0,8,78,02,FE,FF,FF,FF,FF,FF,
1634150,00000130,false,Rx,0,5,41,41,81,1F,D4,00,00,00,
1707103,000004F8,false,Rx,0,8,00,02,FE,FF,FF,FF,FF,FF,
1708596,000003BE,false,Rx,0,2,FE,FF,00,00,00,00,00,00,
1733390,00000130,false,Rx,0,5,41,41,81,1F,E5,00,00,00,
1807217,00000480,false,Rx,0,8,01,02,FE,FF,FF,FF,FF,FF,
1833487,00000130,false,Rx,0,5,41,41,81,1F,F6,00,00,00,
1904319,00000481,false,Rx,0,8,40,02,FF,FF,FF,FF,FF,FF,
1933187,00000130,false,Rx,0,5,41,41,81,1F,07,00,00,00,
1990294,000004C0,false,Rx,0,8,41,02,FF,FF,FF,FF,FF,FF,
2033355,00000130,false,Rx,0,5,41,41,81,1F,18,00,00,00,
2068284,00000130,false,Rx,0,5,41,41,91,1F,39,00,00,00,
2079898,000004C1,false,Rx,0,8,56,12,FE,FF,FF,FF,FF,FF,
2133274,00000130,false,Rx,0,5,41,41,91,1F,4A,00,00,00,
2171254,000004D6,false,Rx,0,8,60,02,FE,FF,FF,FF,FF,FF,
2233237,00000130,false,Rx,0,5,41,41,91,1F,5B,00,00,00,
2257573,000004E0,false,Rx,0,8,61,02,FF,FF,FF,FF,FF,FF,
2333175,00000130,false,Rx,0,5,41,41,91,1F,7C,00,00,00,
2339062,000004E1,false,Rx,0,8,62,02,FE,FF,FF,FF,FF,FF,
2433110,00000130,false,Rx,0,5,41,41,91,1F,8D,00,00,00,
2435566,000004E2,false,Rx,0,8,67,02,FE,FF,FF,FF,FF,FF,
2528289,000004E7,false,Rx,0,8,6D,12,FE,FF,FF,FF,FF,FF,
2533222,00000130,false,Rx,0,5,41,41,91,1F,9E,00,00,00,
2616381,000004ED,false,Rx,0,8,72,52,FE,FF,FF,FF,FF,FF,
2633517,00000130,false,Rx,0,5,41,41,91,1F,A0,00,00,00,
2698332,000004F2,false,Rx,0,8,73,42,FE,FF,00,40,00,00,
2733374,00000130,false,Rx,0,5,41,41,91,1F,B1,00,00,00,
2792674,000004F3,false,Rx,0,8,78,42,FE,FF,FF,FF,FF,FF,
2833196,00000130,false,Rx,0,5,41,41,91,1F,C2,00,00,00,
2868098,00000130,false,Rx,0,5,41,41,A1,1F,E3,00,00,00,
2886885,000004F8,false,Rx,0,8,00,42,FE,FF,FF,FF,FF,FF,
2934686,00000130,false,Rx,0,5,41,41,A1,1F,F4,00,00,00,
2987464,00000480,false,Rx,0,8,01,42,FE,FF,FF,FF,FF,FF,
3033199,00000130,false,Rx,0,5,41,41,A1,1F,05,00,00,00,
3082612,00000481,false,Rx,0,8,40,42,FF,FF,FF,FF,FF,FF,
3133965,00000130,false,Rx,0,5,41,41,A1,1F,16,00,00,00,
3168633,000004C0,false,Rx,0,8,41,42,FF,FF,FF,FF,FF,FF,
3233187,00000130,false,Rx,0,5,41,41,A1,1F,27,00,00,00,
3258232,000004C1,false,Rx,0,8,56,52,FE,FF,FF,FF,FF,FF,
3334264,00000130,false,Rx,0,5,41,41,A1,1F,38,00,00,00,
3359098,000004D6,false,Rx,0,8,60,42,FE,FF,FF,FF,FF,FF,
3433175,00000130,false,Rx,0,5,41,41,A1,1F,49,00,00,00,
3457124,000004E0,false,Rx,0,8,61,42,FF,FF,FF,FF,FF,FF,
3533052,00000130,false,Rx,0,5,41,41,A1,1F,5A,00,00,00,
3539706,000004E1,false,Rx,0,8,62,42,FE,FF,FF,FF,FF,FF,
3608043,00000130,false,Rx,0,5,41,41,A1,0F,5B,00,00,00,
3633106,00000130,false,Rx,0,5,41,41,A1,0F,7C,00,00,00,
3635603,000004E2,false,Rx,0,8,67,42,FE,FF,FF,FF,FF,FF,
3733114,00000130,false,Rx,0,5,41,41,A1,0F,8D,00,00,00,
3737011,000004E7,false,Rx,0,8,6D,52,FE,FF,FF,FF,FF,FF,
3833167,00000130,false,Rx,0,5,41,41,A1,0F,9E,00,00,00,
3836370,000004ED,false,Rx,0,8,72,52,FE,01,FF,FF,FF,FF,
3917987,000004F2,false,Rx,0,8,73,52,FE,01,00,40,00,00,
3933019,00000130,false,Rx,0,5,41,41,A1,0F,A0,00,00,00,
4012652,000004F3,false,Rx,0,8,78,42,FE,01,FF,FF,FF,FF,
4033063,00000130,false,Rx,0,5,41,41,A1,0F,B1,00,00,00,
4106511,000004F8,false,Rx,0,8,00,42,FE,01,FF,FF,FF,FF,
4133010,00000130,false,Rx,0,5,41,41,A1,0F,C2,00,00,00,
4207746,00000480,false,Rx,0,8,01,42,FE,01,FF,FF,FF,FF,
4233058,00000130,false,Rx,0,5,41,41,A1,0F,D3,00,00,00,
4305877,00000481,false,Rx,0,8,40,42,FF,01,FF,FF,FF,FF,
4333100,00000130,false,Rx,0,5,41,41,A1,0F,E4,00,00,00,
4388332,000004C0,false,Rx,0,8,41,42,FF,01,30,20,EC,03,
4433037,00000130,false,Rx,0,5,41,41,A1,0F,F5,00,00,00,
4476690,000004C1,false,Rx,0,8,56,52,FE,01,FF,FF,FF,FF,
4533166,00000130,false,Rx,0,5,41,41,A1,0F,06,00,00,00,
4567505,000004D6,false,Rx,0,8,60,42,FF,01,FF,FF,FF,FF,
4633097,00000130,false,Rx,0,5,41,41,A1,0F,17,00,00,00,
4657178,000004E0,false,Rx,0,8,61,42,FF,01,FF,FF,FF,FF,
4733067,00000130,false,Rx,0,5,41,41,A1,0F,28,00,00,00,
4738723,000004E1,false,Rx,0,8,62,42,FE,01,FF,FF,FF,FF,
4833708,00000130,false,Rx,0,5,41,41,A1,0F,39,00,00,00,
4835879,000004E2,false,Rx,0,8,67,42,FE,01,FF,FF,FF,FF,
4925500,000004E7,false,Rx,0,8,6D,52,FE,01,FF,FF,FF,FF,
4934350,00000130,false,Rx,0,5,41,41,A1,0F,4A,00,00,00,
5016418,000004ED,false,Rx,0,8,72,52,FE,01,FF,FF,FF,FF,
5033100,00000130,false,Rx,0,5,41,41,A1,0F,5B,00,00,00,
5097996,000004F2,false,Rx,0,8,73,42,FE,01,00,40,00,00,
5133070,00000130,false,Rx,0,5,41,41,A1,0F,7C,00,00,00,
5192898,000004F3,false,Rx,0,8,78,42,FE,01,FF,FF,FF,FF,
5233064,00000130,false,Rx,0,5,41,41,A1,0F,8D,00,00,00,
5286426,000004F8,false,Rx,0,8,00,42,FE,01,FF,FF,FF,FF,
5333120,00000130,false,Rx,0,5,41,41,A1,0F,9E,00,00,00,
5368207,00000480,false,Rx,0,8,01,42,FE,01,FF,FF,FF,FF,
5433148,00000130,false,Rx,0,5,41,41,A1,0F,A0,00,00,00,
5463318,00000481,false,Rx,0,8,40,42,FF,01,FF,FF,FF,FF,
5533494,00000130,false,Rx,0,5,41,41,A1,0F,B1,00,00,00,
5548145,000004C0,false,Rx,0,8,41,42,FF,01,30,20,EC,03,
5633090,00000130,false,Rx,0,5,41,41,A1,0F,C2,00,00,00,
5636519,000004C1,false,Rx,0,8,56,52,FE,01,FF,FF,FF,FF,
5733063,00000130,false,Rx,0,5,41,41,A1,0F,D3,00,00,00,
5734942,000004D6,false,Rx,0,8,60,42,FF,01,FF,FF,FF,FF,
5816760,000004E0,false,Rx,0,8,61,42,FF,01,FF,FF,FF,FF,
5833119,00000130,false,Rx,0,5,41,41,A1,0F,E4,00,00,00,
5898448,000004E1,false,Rx,0,8,62,42,FE,01,FF,FF,FF,FF,
5932970,00000130,false,Rx,0,5,41,41,A1,0F,F5,00,00,00,
5950447,000003BD,false,Rx,0,2,FD,FF,00,00,00,00,00,00,
5995679,000004E2,false,Rx,0,8,67,42,FE,01,FF,FF,FF,FF,
6032996,00000130,false,Rx,0,5,41,41,A1,0F,06,00,00,00,
6093738,000004E7,false,Rx,0,8,6D,52,FE,01,FF,FF,FF,FF,
6132925,00000130,false,Rx,0,5,41,41,A1,0F,17,00,00,00,
6176456,000004ED,false,Rx,0,8,72,52,FE,01,FF,FF,FF,FF,
6233102,00000130,false,Rx,0,5,41,41,A1,0F,28,00,00,00,
6258004,000004F2,false,Rx,0,8,73,52,FE,01,00,40,00,00,
6287451,000003B3,false,Rx,0,6,11,00,FF,7F,00,F1,00,00,
6332925,00000130,false,Rx,0,5,41,41,A1,0F,39,00,00,00,
6352885,000004F3,false,Rx,0,8,78,42,FE,01,FF,FF,FF,FF,
6432999,00000130,false,Rx,0,5,41,41,A1,0F,4A,00,00,00,
6446191,000004F8,false,Rx,0,8,00,42,FE,01,FF,FF,FF,FF,
6528504,00000480,false,Rx,0,8,01,42,FE,01,FF,FF,FF,FF,
6534365,00000130,false,Rx,0,5,41,41,A1,0F,5B,00,00,00,
6622917,00000481,false,Rx,0,8,40,42,FF,01,FF,FF,FF,FF,
6632976,00000130,false,Rx,0,5,41,41,A1,0F,7C,00,00,00,
6708087,000004C0,false,Rx,0,8,41,42,FF,01,30,20,EC,03,
6732930,00000130,false,Rx,0,5,41,41,A1,0F,8D,00,00,00,
6794197,000004C1,false,Rx,0,8,56,52,FE,01,FF,FF,FF,FF,
6832959,00000130,false,Rx,0,5,41,41,A1,0F,9E,00,00,00,
6881725,000004D6,false,Rx,0,8,60,42,FF,01,FF,FF,FF,FF,
6934128,00000130,false,Rx,0,5,41,41,A1,0F,A0,00,00,00,
6976771,000004E0,false,Rx,0,8,61,42,FF,01,FF,FF,FF,FF,
7032932,00000130,false,Rx,0,5,41,41,A1,0F,B1,00,00,00,
7058264,000004E1,false,Rx,0,8,62,42,FE,01,FF,FF,FF,FF,
7133248,00000130,false,Rx,0,5,41,41,A1,0F,C2,00,00,00,
7155904,000004E2,false,Rx,0,8,67,42,FE,01,FF,FF,FF,FF,
7233054,00000130,false,Rx,0,5,41,41,A1,0F,D3,00,00,00,
7242117,000004E7,false,Rx,0,8,6D,52,FE,01,FF,FF,FF,FF,
7333046,00000130,false,Rx,0,5,41,41,A1,0F,E4,00,00,00,
7337421,000004ED,false,Rx,0,8,72,52,FE,01,FF,FF,FF,FF,
7433051,00000130,false,Rx,0,5,41,41,A1,0F,F5,00,00,00,
7438115,000004F2,false,Rx,0,8,73,52,FE,01,00,40,00,00,
7533077,00000130,false,Rx,0,5,41,41,A1,0F,06,00,00,00,
7534260,000004F3,false,Rx,0,8,78,42,FE,01,FF,FF,FF,FF,
7625795,000004F8,false,Rx,0,8,00,42,FE,01,FF,FF,FF,FF,
7632996,00000130,false,Rx,0,5,41,41,A1,0F,17,00,00,00,
7708896,00000480,false,Rx,0,8,01,42,FE,01,FF,FF,FF,FF,
7733015,00000130,false,Rx,0,5,41,41,A1,0F,28,00,00,00,
7804028,00000481,false,Rx,0,8,40,42,FF,01,FF,FF,FF,FF,
7833029,00000130,false,Rx,0,5,41,41,A1,0F,39,00,00,00,
7888110,000004C0,false,Rx,0,8,41,42,FF,01,30,20,EC,03,
7932935,00000130,false,Rx,0,5,41,41,A1,0F,4A,00,00,00,
7972674,000004C1,false,Rx,0,8,56,52,FE,01,FF,FF,FF,FF,
8033093,00000130,false,Rx,0,5,41,41,A1,0F,5B,00,00,00,
8069799,000004D6,false,Rx,0,8,60,42,FF,01,FF,FF,FF,FF,
8133033,00000130,false,Rx,0,5,41,41,A1,0F,7C,00,00,00,
8156772,000004E0,false,Rx,0,8,61,42,FF,01,FF,FF,FF,FF,
8233055,00000130,false,Rx,0,5,41,41,A1,0F,8D,00,00,00,
8238224,000004E1,false,Rx,0,8,62,42,FE,01,FF,FF,FF,FF,
8333043,00000130,false,Rx,0,5,41,41,A1,0F,9E,00,00,00,
8335991,000004E2,false,Rx,0,8,67,42,FE,01,FF,FF,FF,FF,
8430650,000004E7,false,Rx,0,8,6D,52,FE,01,FF,FF,FF,FF,
8433118,00000130,false,Rx,0,5,41,41,A1,0F,A0,00,00,00,
8516650,000004ED,false,Rx,0,8,72,52,FE,01,FF,FF,FF,FF,
8533687,00000130,false,Rx,0,5,41,41,A1,0F,B1,00,00,00,
8598140,000004F2,false,Rx,0,8,73,52,FE,01,00,40,00,00,
8633079,00000130,false,Rx,0,5,41,41,A1,0F,C2,00,00,00,
8693334,000004F3,false,Rx,0,8,78,42,FE,01,FF,FF,FF,FF,
8733056,00000130,false,Rx,0,5,41,41,A1,0F,D3,00,00,00,
8785622,000004F8,false,Rx,0,8,00,42,FE,01,FF,FF,FF,FF,
8833070,00000130,false,Rx,0,5,41,41,A1,0F,E4,00,00,00,
8869363,00000480,false,Rx,0,8,01,42,FE,01,FF,FF,FF,FF,
8934174,00000130,false,Rx,0,5,41,41,A1,0F,F5,00,00,00,
8963092,00000481,false,Rx,0,8,40,42,FF,01,FF,FF,FF,FF,
9033097,00000130,false,Rx,0,5,41,41,A1,0F,06,00,00,00,
9048311,000004C0,false,Rx,0,8,41,42,FF,01,30,20,EC,03,
9132780,000004C1,false,Rx,0,8,56,52,FE,01,FF,FF,FF,FF,
9133787,00000130,false,Rx,0,5,41,41,A1,0F,17,00,00,00,
9216797,000004D6,false,Rx,0,8,60,42,FF,01,FF,FF,FF,FF,
9233043,00000130,false,Rx,0,5,41,41,A1,0F,28,00,00,00,
9316989,000004E0,false,Rx,0,8,61,42,FF,01,FF,FF,FF,FF,
9332991,00000130,false,Rx,0,5,41,41,A1,0F,39,00,00,00,
9418007,000004E1,false,Rx,0,8,62,42,FE,01,FF,FF,FF,FF,
9433369,00000130,false,Rx,0,5,41,41,A1,0F,4A,00,00,00,
9515993,000004E2,false,Rx,0,8,67,42,FE,01,FF,FF,FF,FF,
9533455,00000130,false,Rx,0,5,41,41,A1,0F,5B,00,00,00,
9598886,000004E7,false,Rx,0,8,6D,52,FE,01,FF,FF,FF,FF,
9632991,00000130,false,Rx,0,5,41,41,A1,0F,7C,00,00,00,
9696627,000004ED,false,Rx,0,8,72,52,FE,01,FF,FF,FF,FF,
9732902,00000130,false,Rx,0,5,41,41,A1,0F,8D,00,00,00,
9778180,000004F2,false,Rx,0,8,73,52,FE,01,00,40,00,00,
9833032,00000130,false,Rx,0,5,41,41,A1,0F,9E,00,00,00,
9873413,000004F3,false,Rx,0,8,78,42,FE,01,FF,FF,FF,FF,
9932950,00000130,false,Rx,0,5,41,41,A1,0F,A0,00,00,00,
9965365,000004F8,false,Rx,0,8,00,42,FE,01,FF,FF,FF,FF,
10032986,00000130,false,Rx,0,5,41,41,A1,0F,B1,00,00,00,
10049699,00000480,false,Rx,0,8,01,42,FE,01,FF,FF,FF,FF,
10132933,00000130,false,Rx,0,5,41,41,A1,0F,C2,00,00,00,
10143069,00000481,false,Rx,0,8,40,42,FF,01,FF,FF,FF,FF,
10228363,000004C0,false,Rx,0,8,41,42,FF,01,30,20,EC,03,
10232998,00000130,false,Rx,0,5,41,41,A1,0F,D3,00,00,00,
10310211,000004C1,false,Rx,0,8,56,52,FE,01,FF,FF,FF,FF,
10333004,00000130,false,Rx,0,5,41,41,A1,0F,E4,00,00,00,
10404932,000004D6,false,Rx,0,8,60,42,FF,01,FF,FF,FF,FF,
10433035,00000130,false,Rx,0,5,41,41,A1,0F,F5,00,00,00,
10496854,000004E0,false,Rx,0,8,61,42,FF,01,FF,FF,FF,FF,
10533202,00000130,false,Rx,0,5,41,41,A1,0F,06,00,00,00,
10597865,000004E1,false,Rx,0,8,62,42,FE,01,FF,FF,FF,FF,
10633017,00000130,false,Rx,0,5,41,41,A1,0F,17,00,00,00,
10696917,000004E2,false,Rx,0,8,67,42,FE,01,FF,FF,FF,FF,
10732992,00000130,false,Rx,0,5,41,41,A1,0F,28,00,00,00,
10787515,000004E7,false,Rx,0,8,6D,52,FE,01,FF,FF,FF,FF,
10833097,00000130,false,Rx,0,5,41,41,A1,0F,39,00,00,00,
10880897,000004ED,false,Rx,0,8,72,52,FE,01,FF,FF,FF,FF,
10934163,00000130,false,Rx,0,5,41,41,A1,0F,4A,00,00,00,
10950692,000003BD,false,Rx,0,2,FD,FF,00,00,00,00,00,00,
10978304,000004F2,false,Rx,0,8,73,52,FE,01,00,40,00,00,
11033023,00000130,false,Rx,0,5,41,41,A1,0F,5B,00,00,00,
11073693,000004F3,false,Rx,0,8,78,42,FE,01,FF,FF,FF,FF,
11133148,00000130,false,Rx,0,5,41,41,A1,0F,7C,00,00,00,
11165389,000004F8,false,Rx,0,8,00,42,FE,01,FF,FF,FF,FF,
11233031,00000130,false,Rx,0,5,41,41,A1,0F,8D,00,00,00,
11250161,00000480,false,Rx,0,8,01,42,FE,01,FF,FF,FF,FF,
11307690,000003BE,false,Rx,0,2,FE,FF,00,00,00,00,00,00,
11333006,00000130,false,Rx,0,5,41,41,A1,0F,9E,00,00,00,
11342890,00000481,false,Rx,0,8,40,42,FF,01,FF,FF,FF,FF,
11387557,000003B3,false,Rx,0,6,11,00,FF,7F,00,F1,00,00,
11428490,000004C0,false,Rx,0,8,41,42,FF,01,30,20,EC,02,
11433109,00000130,false,Rx,0,5,41,41,A1,0F,A0,00,00,00,
11508908,000004C1,false,Rx,0,8,56,52,FE,01,FF,FF,FF,FF,
11533762,00000130,false,Rx,0,5,41,41,A1,0F,B1,00,00,00,
11592565,000004D6,false,Rx,0,8,60,42,FF,01,FF,FF,FF,FF,
11633119,00000130,false,Rx,0,5,41,41,A1,0F,C2,00,00,00,
11677973,000004E0,false,Rx,0,8,61,42,FF,01,FF,FF,FF,FF,
11733416,00000130,false,Rx,0,5,41,41,A1,0F,D3,00,00,00,
11778543,000004E1,false,Rx,0,8,62,42,FE,01,FF,FF,FF,FF,
11833175,00000130,false,Rx,0,5,41,41,A1,0F,E4,00,00,00,
11876659,000004E2,false,Rx,0,8,67,42,FE,01,FF,FF,FF,FF,
11933124,00000130,false,Rx,0,5,41,41,A1,0F,F5,00,00,00,
11977278,000004E7,false,Rx,0,8,6D,52,FE,01,FF,FF,FF,FF,
12033156,00000130,false,Rx,0,5,41,41,A1,0F,06,00,00,00,
12076998,000004ED,false,Rx,0,8,72,52,FE,01,FF,FF,FF,FF,
12133163,00000130,false,Rx,0,5,41,41,A1,0F,17,00,00,00,
12158373,000004F2,false,Rx,0,8,73,52,FE,01,00,40,00,00,
12233143,00000130,false,Rx,0,5,41,41,A1,0F,28,00,00,00,
12253941,000004F3,false,Rx,0,8,78,42,FE,01,FF,FF,FF,FF,
12333156,00000130,false,Rx,0,5,41,41,A1,0F,39,00,00,00,
12345566,000004F8,false,Rx,0,8,00,42,FE,01,FF,FF,FF,FF,
12430744,00000480,false,Rx,0,8,01,42,FE,01,FF,FF,FF,FF,
12433216,00000130,false,Rx,0,5,41,41,A1,0F,4A,00,00,00,
12523167,00000481,false,Rx,0,8,40,42,FF,01,FF,FF,FF,FF,
12533609,00000130,false,Rx,0,5,41,41,A1,0F,5B,00,00,00,
12608466,000004C0,false,Rx,0,8,41,42,FF,01,30,20,EC,02,
12633095,00000130,false,Rx,0,5,41,41,A1,0F,7C,00,00,00,
12708259,000004C1,false,Rx,0,8,56,52,FE,01,FF,FF,FF,FF,
12733050,00000130,false,Rx,0,5,41,41,A1,0F,8D,00,00,00,
12801265,000004D6,false,Rx,0,8,60,42,FF,01,FF,FF,FF,FF,
12833170,00000130,false,Rx,0,5,41,41,A1,0F,9E,00,00,00,
12898835,000004E0,false,Rx,0,8,61,42,FF,01,FF,FF,FF,FF,
12934300,00000130,false,Rx,0,5,41,41,A1,0F,A0,00,00,00,
12998991,000004E1,false,Rx,0,8,62,42,FE,01,FF,FF,FF,FF,
13033163,00000130,false,Rx,0,5,41,41,A1,0F,B1,00,00,00,
13096438,000004E2,false,Rx,0,8,67,42,FE,01,FF,FF,FF,FF,
13133081,00000130,false,Rx,0,5,41,41,A1,0F,C2,00,00,00,
13184805,000004E7,false,Rx,0,8,6D,52,FE,01,FF,FF,FF,FF,
13233122,00000130,false,Rx,0,5,41,41,A1,0F,D3,00,00,00,
13277012,000004ED,false,Rx,0,8,72,52,FE,01,FF,FF,FF,FF,
13333071,00000130,false,Rx,0,5,41,41,A1,0F,E4,00,00,00,
13358315,000004F2,false,Rx,0,8,73,52,FE,01,00,40,00,00,
13433110,00000130,false,Rx,0,5,41,41,A1,0F,F5,00,00,00,
13454081,000004F3,false,Rx,0,8,78,42,FE,01,FF,FF,FF,FF,
13533726,00000130,false,Rx,0,5,41,41,A1,0F,06,00,00,00,
13544955,000004F8,false,Rx,0,8,00,42,FE,01,FF,FF,FF,FF,
13631100,00000480,false,Rx,0,8,01,42,FE,01,FF,FF,FF,FF,
13633129,00000130,false,Rx,0,5,41,41,A1,0F,17,00,00,00,
13722944,00000481,false,Rx,0,8,40,42,FF,01,FF,FF,FF,FF,
13733076,00000130,false,Rx,0,5,41,41,A1,0F,28,00,00,00,
13808701,000004C0,false,Rx,0,8,41,42,FF,01,30,20,EC,02,
13833137,00000130,false,Rx,0,5,41,41,A1,0F,39,00,00,00,
13909567,000004C1,false,Rx,0,8,56,52,FE,01,FF,FF,FF,FF,
13933094,00000130,false,Rx,0,5,41,41,A1,0F,4A,00,00,00,
14009572,000004D6,false,Rx,0,8,60,42,FF,01,FF,FF,FF,FF,
14033261,00000130,false,Rx,0,5,41,41,A1,0F,5B,00,00,00,
14096974,000004E0,false,Rx,0,8,61,42,FF,01,FF,FF,FF,FF,
14133236,00000130,false,Rx,0,5,41,41,A1,0F,7C,00,00,00,
14198914,000004E1,false,Rx,0,8,62,42,FE,01,FF,FF,FF,FF,
14233148,00000130,false,Rx,0,5,41,41,A1,0F,8D,00,00,00,
14296602,000004E2,false,Rx,0,8,67,42,FE,01,FF,FF,FF,FF,
14333156,00000130,false,Rx,0,5,41,41,A1,0F,9E,00,00,00,
14393798,000004E7,false,Rx,0,8,6D,52,FE,01,FF,FF,FF,FF,
14433287,00000130,false,Rx,0,5,41,41,A1,0F,A0,00,00,00,
14481401,000004ED,false,Rx,0,8,72,52,FE,01,FF,FF,FF,FF,
14533485,00000130,false,Rx,0,5,41,41,A1,0F,B1,00,00,00,
14581560,000004F2,false,Rx,0,8,73,52,FE,01,00,40,00,00,
14633180,00000130,false,Rx,0,5,41,41,A1,0F,C2,00,00,00,
14674262,000004F3,false,Rx,0,8,78,42,FE,01,FF,FF,FF,FF,
14733161,00000130,false,Rx,0,5,41,41,A1,0F,D3,00,00,00,
14764753,000004F8,false,Rx,0,8,00,42,FE,01,FF,FF,FF,FF,
14833205,00000130,false,Rx,0,5,41,41,A1,0F,E4,00,00,00,
14851580,00000480,false,Rx,0,8,01,42,FE,01,FF,FF,FF,FF,
14934418,00000130,false,Rx,0,5,41,41,A1,0F,F5,00,00,00,
14943910,00000481,false,Rx,0,8,40,42,FF,01,FF,FF,FF,FF,
15028691,000004C0,false,Rx,0,8,41,42,FF,01,30,20,EC,02,
15033292,00000130,false,Rx,0,5,41,41,A1,0F,06,00,00,00,
15126622,000004C1,false,Rx,0,8,56,52,FE,01,FF,FF,FF,FF,
15133301,00000130,false,Rx,0,5,41,41,A1,0F,17,00,00,00,
15218074,000004D6,false,Rx,0,8,60,42,FF,01,FF,FF,FF,FF,
15233180,00000130,false,Rx,0,5,41,41,A1,0F,28,00,00,00,
15316855,000004E0,false,Rx,0,8,61,42,FF,01,FF,FF,FF,FF,
15333274,00000130,false,Rx,0,5,41,41,A1,0F,39,00,00,00,
15417611,000004E1,false,Rx,0,8,62,42,FE,01,FF,FF,FF,FF,
15433338,00000130,false,Rx,0,5,41,41,A1,0F,4A,00,00,00,
15516896,000004E2,false,Rx,0,8,67,42,FE,01,FF,FF,FF,FF,
15533307,00000130,false,Rx,0,5,41,41,A1,0F,5B,00,00,00,
15602498,000004E7,false,Rx,0,8,6D,52,FE,01,FF,FF,FF,FF,
15633273,00000130,false,Rx,0,5,41,41,A1,0F,7C,00,00,00,
15711403,000004ED,false,Rx,0,8,72,52,FE,01,FF,FF,FF,FF,
15734069,00000130,false,Rx,0,5,41,41,A1,0F,8D,00,00,00,
15798953,000004F2,false,Rx,0,8,73,52,FE,01,00,40,00,00,
15833395,00000130,false,Rx,0,5,41,41,A1,0F,9E,00,00,00,
15895375,000004F3,false,Rx,0,8,78,42,FE,01,FF,FF,FF,FF,
15933274,00000130,false,Rx,0,5,41,41,A1,0F,A0,00,00,00,
15951092,000003BD,false,Rx,0,2,FD,FF,00,00,00,00,00,00,
15985200,000004F8,false,Rx,0,8,00,42,FE,01,FF,FF,FF,FF,
16033283,00000130,false,Rx,0,5,41,41,A1,0F,B1,00,00,00,
16072079,00000480,false,Rx,0,8,01,42,FE,01,FF,FF,FF,FF,
16133256,00000130,false,Rx,0,5,41,41,A1,0F,C2,00,00,00,
16163673,00000481,false,Rx,0,8,40,42,FF,01,FF,FF,FF,FF,
16233307,00000130,false,Rx,0,5,41,41,A1,0F,D3,00,00,00,
16248541,000004C0,false,Rx,0,8,41,42,FF,01,30,20,EC,02,
16333246,00000130,false,Rx,0,5,41,41,A1,0F,E4,00,00,00,
16344002,000004C1,false,Rx,0,8,56,52,FE,01,FF,FF,FF,FF,
16433320,00000130,false,Rx,0,5,41,41,A1,0F,F5,00,00,00,
16447040,000004D6,false,Rx,0,8,60,42,FF,01,FF,FF,FF,FF,
16489146,000003B3,false,Rx,0,6,11,00,FF,7F,00,F1,00,00,
16534146,00000130,false,Rx,0,5,41,41,A1,0F,06,00,00,00,
16537706,000004E0,false,Rx,0,8,61,42,FF,01,FF,FF,FF,FF,
16633342,00000130,false,Rx,0,5,41,41,A1,0F,17,00,00,00,
16637451,000004E1,false,Rx,0,8,62,42,FE,01,FF,FF,FF,FF,
16733340,00000130,false,Rx,0,5,41,41,A1,0F,28,00,00,00,
16737097,000004E2,false,Rx,0,8,67,42,FE,01,FF,FF,FF,FF,
16831239,000004E7,false,Rx,0,8,6D,52,FE,01,FF,FF,FF,FF,
16833339,00000130,false,Rx,0,5,41,41,A1,0F,39,00,00,00,
16917583,000004ED,false,Rx,0,8,72,52,FE,01,FF,FF,FF,FF,
16934498,00000130,false,Rx,0,5,41,41,A1,0F,4A,00,00,00,
17018651,000004F2,false,Rx,0,8,73,52,FE,01,00,40,00,00,
17033648,00000130,false,Rx,0,5,41,41,A1,0F,5B,00,00,00,
17114878,000004F3,false,Rx,0,8,78,42,FE,01,FF,FF,FF,FF,
17133449,00000130,false,Rx,0,5,41,41,A1,0F,7C,00,00,00,
17207774,000004F8,false,Rx,0,8,00,42,FE,01,FF,FF,FF,FF,
17233479,00000130,false,Rx,0,5,41,41,A1,0F,8D,00,00,00,
17292727,00000480,false,Rx,0,8,01,42,FE,01,FF,FF,FF,FF,
17333437,00000130,false,Rx,0,5,41,41,A1,0F,9E,00,00,00,
17383650,00000481,false,Rx,0,8,40,42,FF,01,FF,FF,FF,FF,
17433464,00000130,false,Rx,0,5,41,41,A1,0F,A0,00,00,00,
17468785,000004C0,false,Rx,0,8,41,42,FF,01,30,20,EC,02,
17533749,00000130,false,Rx,0,5,41,41,A1,0F,B1,00,00,00,
17562761,000004C1,false,Rx,0,8,56,52,FE,01,FF,FF,FF,FF,
17633400,00000130,false,Rx,0,5,41,41,A1,0F,C2,00,00,00,
17655563,000004D6,false,Rx,0,8,60,42,FF,01,FF,FF,FF,FF,
17733380,00000130,false,Rx,0,5,41,41,A1,0F,D3,00,00,00,
17737194,000004E0,false,Rx,0,8,61,42,FF,01,FF,FF,FF,FF,
17833385,00000130,false,Rx,0,5,41,41,A1,0F,E4,00,00,00,
17837393,000004E1,false,Rx,0,8,62,42,FE,01,FF,FF,FF,FF,
17933383,00000130,false,Rx,0,5,41,41,A1,0F,F5,00,00,00,
17937184,000004E2,false,Rx,0,8,67,42,FE,01,FF,FF,FF,FF,
18019859,000004E7,false,Rx,0,8,6D,52,FE,01,FF,FF,FF,FF,
18033413,00000130,false,Rx,0,5,41,41,A1,0F,06,00,00,00,
18117720,000004ED,false,Rx,0,8,72,52,FE,01,FF,FF,FF,FF,
18133425,00000130,false,Rx,0,5,41,41,A1,0F,17,00,00,00,
18218777,000004F2,false,Rx,0,8,73,52,FE,01,00,40,00,00,
18233399,00000130,false,Rx,0,5,41,41,A1,0F,28,00,00,00,
18315038,000004F3,false,Rx,0,8,78,42,FE,01,FF,FF,FF,FF,
18333422,00000130,false,Rx,0,5,41,41,A1,0F,39,00,00,00,
18408165,000004F8,false,Rx,0,8,00,42,FE,01,FF,FF,FF,FF,
18433449,00000130,false,Rx,0,5,41,41,A1,0F,4A,00,00,00,
18493090,00000480,false,Rx,0,8,01,42,FE,01,FF,FF,FF,FF,
18534111,00000130,false,Rx,0,5,41,41,A1,0F,5B,00,00,00,
18583427,00000481,false,Rx,0,8,40,42,FF,01,FF,FF,FF,FF,
18633473,00000130,false,Rx,0,5,41,41,A1,0F,7C,00,00,00,
18668582,000004C0,false,Rx,0,8,41,42,FF,01,30,20,EC,02,
18733452,00000130,false,Rx,0,5,41,41,A1,0F,8D,00,00,00,
18761575,000004C1,false,Rx,0,8,56,52,FE,01,FF,FF,FF,FF,
18833506,00000130,false,Rx,0,5,41,41,A1,0F,9E,00,00,00,
18864089,000004D6,false,Rx,0,8,60,42,FF,01,FF,FF,FF,FF,
18934726,00000130,false,Rx,0,5,41,41,A1,0F,A0,00,00,00,
18957552,000004E0,false,Rx,0,8,61,42,FF,01,FF,FF,FF,FF,
19033528,00000130,false,Rx,0,5,41,41,A1,0F,B1,00,00,00,
19057413,000004E1,false,Rx,0,8,62,42,FE,01,FF,FF,FF,FF,
19133491,00000130,false,Rx,0,5,41,41,A1,0F,C2,00,00,00,
19157471,000004E2,false,Rx,0,8,67,42,FE,01,FF,FF,FF,FF,
19233558,00000130,false,Rx,0,5,41,41,A1,0F,D3,00,00,00,
19248846,000004E7,false,Rx,0,8,6D,52,FE,01,FF,FF,FF,FF,
19333485,00000130,false,Rx,0,5,41,41,A1,0F,E4,00,00,00,
19337956,000004ED,false,Rx,0,8,72,52,FE,01,FF,FF,FF,FF,
19433574,00000130,false,Rx,0,5,41,41,A1,0F,F5,00,00,00,
19438967,000004F2,false,Rx,0,8,73,52,FE,01,00,40,00,00,
19533886,00000130,false,Rx,0,5,41,41,A1,0F,06,00,00,00,
19535358,000004F3,false,Rx,0,8,78,42,FE,01,FF,FF,FF,FF,
19624187,000004F8,false,Rx,0,8,00,42,FE,01,FF,FF,FF,FF,
19633577,00000130,false,Rx,0,5,41,41,A1,0F,17,00,00,00,
19713622,00000480,false,Rx,0,8,01,42,FE,01,FF,FF,FF,FF,
19733512,00000130,false,Rx,0,5,41,41,A1,0F,28,00,00,00,
19804199,00000481,false,Rx,0,8,40,42,FF,01,FF,FF,FF,FF,
19833595,00000130,false,Rx,0,5,41,41,A1,0F,39,00,00,00,
19888812,000004C0,false,Rx,0,8,41,42,FF,01,30,20,EC,02,
19933648,00000130,false,Rx,0,5,41,41,A1,0F,4A,00,00,00,
19983923,000004C1,false,Rx,0,8,56,52,FE,01,FF,FF,FF,FF,
20033593,00000130,false,Rx,0,5,41,41,A1,0F,5B,00,00,00,
20072588,000004D6,false,Rx,0,8,60,42,FF,01,FF,FF,FF,FF,
20133586,00000130,false,Rx,0,5,41,41,A1,0F,7C,00,00,00,
20157389,000004E0,false,Rx,0,8,61,42,FF,01,FF,FF,FF,FF,
20233626,00000130,false,Rx,0,5,41,41,A1,0F,8D,00,00,00,
20257276,000004E1,false,Rx,0,8,62,42,FE,01,FF,FF,FF,FF,
20333584,00000130,false,Rx,0,5,41,41,A1,0F,9E,00,00,00,
20357639,000004E2,false,Rx,0,8,67,42,FE,01,FF,FF,FF,FF,
20433649,00000130,false,Rx,0,5,41,41,A1,0F,A0,00,00,00,
20457599,000004E7,false,Rx,0,8,6D,52,FE,01,FF,FF,FF,FF,
20534344,00000130,false,Rx,0,5,41,41,A1,0F,B1,00,00,00,
20559154,000004ED,false,Rx,0,8,72,52,FE,01,FF,FF,FF,FF,
20633703,00000130,false,Rx,0,5,41,41,A1,0F,C2,00,00,00,
20659182,000004F2,false,Rx,0,8,73,52,FE,01,00,40,00,00,
20733630,00000130,false,Rx,0,5,41,41,A1,0F,D3,00,00,00,
20755605,000004F3,false,Rx,0,8,78,42,FE,01,FF,FF,FF,FF,
20833696,00000130,false,Rx,0,5,41,41,A1,0F,E4,00,00,00,
20844113,000004F8,false,Rx,0,8,00,42,FE,01,FF,FF,FF,FF,
20935169,00000480,false,Rx,0,8,01,42,FE,01,FF,FF,FF,FF,
20936061,00000130,false,Rx,0,5,41,41,A1,0F,F5,00,00,00,
20951603,000003BD,false,Rx,0,2,FD,FF,00,00,00,00,00,00,
21024042,00000481,false,Rx,0,8,40,42,FF,01,FF,FF,FF,FF,
21033698,00000130,false,Rx,0,5,41,41,A1,0F,06,00,00,00,
21111439,000004C0,false,Rx,0,8,41,42,FF,01,30,20,EC,02,
21133772,00000130,false,Rx,0,5,41,41,A1,0F,17,00,00,00,
21199290,000004C1,false,Rx,0,8,56,52,FE,01,FF,FF,FF,FF,
21233796,00000130,false,Rx,0,5,41,41,A1,0F,28,00,00,00,
21301638,000004D6,false,Rx,0,8,60,42,FF,01,FF,FF,FF,FF,
21311727,000003BE,false,Rx,0,2,FE,FF,00,00,00,00,00,00,
21333658,00000130,false,Rx,0,5,41,41,A1,0F,39,00,00,00,
21397543,000004E0,false,Rx,0,8,61,42,FF,01,FF,FF,FF,FF,
21433753,00000130,false,Rx,0,5,41,41,A1,0F,4A,00,00,00,
21497729,000004E1,false,Rx,0,8,62,42,FE,01,FF,FF,FF,FF,
21534384,00000130,false,Rx,0,5,41,41,A1,0F,5B,00,00,00,
21589320,000003B3,false,Rx,0,6,11,00,FF,7F,00,F1,00,00,
21597847,000004E2,false,Rx,0,8,67,42,FE,01,FF,FF,FF,FF,
21633745,00000130,false,Rx,0,5,41,41,A1,0F,7C,00,00,00,
21686583,000004E7,false,Rx,0,8,6D,52,FE,01,FF,FF,FF,FF,
21733755,00000130,false,Rx,0,5,41,41,A1,0F,8D,00,00,00,
21748657,00000130,false,Rx,0,5,41,41,A1,1F,AE,00,00,00,
21779102,000004ED,false,Rx,0,8,72,52,FE,01,FF,FF,FF,FF,
21803921,00000130,false,Rx,0,5,40,41,A2,3F,D0,00,00,00,
21809820,000003BE,false,Rx,0,2,B3,F0,00,00,00,00,00,00,
21834089,00000130,false,Rx,0,5,40,41,A2,3F,E1,00,00,00,
21855090,00000130,false,Rx,0,5,40,41,92,3F,E2,00,00,00,
21879214,000004F2,false,Rx,0,8,73,42,FE,01,00,40,00,00,
21908972,00000130,false,Rx,0,5,40,41,92,1F,D3,00,00,00,
21933724,00000130,false,Rx,0,5,40,41,92,1F,E4,00,00,00,
21977683,000004F3,false,Rx,0,8,78,42,FE,01,FF,FF,FF,FF,
22010203,000003BE,false,Rx,0,2,B3,F0,00,00,00,00,00,00,
22033774,00000130,false,Rx,0,5,40,41,92,1F,F5,00,00,00,
22064001,000004F8,false,Rx,0,8,00,42,FE,01,FF,FF,FF,FF,
22133844,00000130,false,Rx,0,5,40,41,92,1F,06,00,00,00,
22154704,00000480,false,Rx,0,8,01,42,FE,01,FF,FF,FF,FF,
22209179,000003BE,false,Rx,0,2,B3,F0,00,00,00,00,00,00,
22233773,00000130,false,Rx,0,5,40,41,92,1F,17,00,00,00,
22244110,00000481,false,Rx,0,8,40,42,FF,01,FF,FF,FF,FF,
22328963,000004C0,false,Rx,0,8,41,42,FF,01,30,20,EC,02,
22333772,00000130,false,Rx,0,5,40,41,92,1F,28,00,00,00,
22419134,000004C1,false,Rx,0,8,56,52,FE,01,FF,FF,FF,FF,
22433899,00000130,false,Rx,0,5,40,41,92,1F,39,00,00,00,
22511989,000004D6,false,Rx,0,8,60,42,FF,01,FF,FF,FF,FF,
22533795,00000130,false,Rx,0,5,40,41,92,1F,4A,00,00,00,
22599839,000004E0,false,Rx,0,8,61,42,FF,01,FF,FF,FF,FF,
22633900,00000130,false,Rx,0,5,40,41,92,1F,5B,00,00,00,
22698272,000004E1,false,Rx,0,8,62,52,FE,01,FF,FF,FF,FF,
22733860,00000130,false,Rx,0,5,40,41,92,1F,7C,00,00,00,
22798382,000004E2,false,Rx,0,8,67,42,FE,01,FF,FF,FF,FF,
22833854,00000130,false,Rx,0,5,40,41,92,1F,8D,00,00,00,
22895432,000004E7,false,Rx,0,8,6D,52,FE,01,FF,FF,FF,FF,
22935068,00000130,false,Rx,0,5,40,41,92,1F,9E,00,00,00,
22978551,000004ED,false,Rx,0,8,72,52,FE,01,FF,FF,FF,FF,
23033905,00000130,false,Rx,0,5,40,41,92,1F,A0,00,00,00,
23079496,000004F2,false,Rx,0,8,73,42,FE,01,00,40,00,00,
23134320,00000130,false,Rx,0,5,40,41,92,1F,B1,00,00,00,
23177267,000004F3,false,Rx,0,8,78,52,FE,01,FF,FF,FF,FF,
23233928,00000130,false,Rx,0,5,40,41,92,1F,C2,00,00,00,
23263907,000004F8,false,Rx,0,8,00,52,FE,01,FF,FF,FF,FF,
23333917,00000130,false,Rx,0,5,40,41,92,1F,D3,00,00,00,
23355286,00000480,false,Rx,0,8,01,42,FE,01,FF,FF,FF,FF,
23433903,00000130,false,Rx,0,5,40,41,92,1F,E4,00,00,00,
23443925,00000481,false,Rx,0,8,40,42,FF,01,FF,FF,FF,FF,
23529063,000004C0,false,Rx,0,8,41,42,FF,01,30,20,EC,03,
23533923,00000130,false,Rx,0,5,40,41,92,1F,F5,00,00,00,
23617922,000004C1,false,Rx,0,8,56,52,FE,01,FF,FF,FF,FF,
23633937,00000130,false,Rx,0,5,40,41,92,1F,06,00,00,00,
23718675,000004D6,false,Rx,0,8,60,42,FF,01,FF,FF,FF,FF,
23733931,00000130,false,Rx,0,5,40,41,92,1F,17,00,00,00,
23818628,000004E0,false,Rx,0,8,61,42,FF,01,FF,FF,FF,FF,
23833924,00000130,false,Rx,0,5,40,41,92,1F,28,00,00,00,
23917231,000004E1,false,Rx,0,8,62,52,FE,01,FF,FF,FF,FF,
23934002,00000130,false,Rx,0,5,40,41,92,1F,39,00,00,00,
24018324,000004E2,false,Rx,0,8,67,42,FE,01,FF,FF,FF,FF,
24033976,00000130,false,Rx,0,5,40,41,92,1F,4A,00,00,00,
24104257,000004E7,false,Rx,0,8,6D,52,FE,01,FF,FF,FF,FF,
24133980,00000130,false,Rx,0,5,40,41,92,1F,5B,00,00,00,
24198999,000004ED,false,Rx,0,8,72,52,FE,01,FF,FF,FF,FF,
24234025,00000130,false,Rx,0,5,40,41,92,1F,7C,00,00,00,
24299730,000004F2,false,Rx,0,8,73,52,FE,01,00,40,00,00,
24334128,00000130,false,Rx,0,5,40,41,92,1F,8D,00,00,00,
24349062,00000130,false,Rx,0,5,40,41,92,0F,8E,00,00,00,
24396610,000004F3,false,Rx,0,8,78,52,FE,01,FF,FF,FF,FF,
24434119,00000130,false,Rx,0,5,40,41,92,0F,90,00,00,00,
24483915,000004F8,false,Rx,0,8,00,52,FE,01,FF,FF,FF,FF,
24534083,00000130,false,Rx,0,5,40,41,92,0F,A1,00,00,00,
24575786,00000480,false,Rx,0,8,01,42,FE,01,FF,FF,FF,FF,
24611511,000003BE,false,Rx,0,2,B3,F0,00,00,00,00,00,00,
24634033,00000130,false,Rx,0,5,40,41,92,0F,B2,00,00,00,
24734110,00000130,false,Rx,0,5,40,41,92,0F,C3,00,00,00,
24810365,000003BE,false,Rx,0,2,B3,F0,00,00,00,00,00,00,
24834044,00000130,false,Rx,0,5,40,41,92,0F,D4,00,00,00,
24835873,00000480,false,Rx,0,8,00,01,FE,FF,FF,FF,FF,FF,
24837230,000004E1,false,Rx,0,8,61,01,FE,FF,FF,FF,FF,FF,
24838467,000004E0,false,Rx,0,8,60,01,FF,FF,FF,FF,FF,FF,
24839701,000004E2,false,Rx,0,8,62,01,FE,FF,FF,FF,FF,FF,
24840908,000004ED,false,Rx,0,8,6D,01,FF,FF,FF,FF,FF,FF,
24842115,000004F2,false,Rx,0,8,72,01,FE,FF,FF,FF,FF,FF,
24843920,000004F8,false,Rx,0,8,78,01,FE,FF,FF,FF,FF,FF,
24845468,000004D6,false,Rx,0,8,56,01,FF,FF,FF,FF,FF,FF,
24849252,000004C0,false,Rx,0,8,40,01,FF,FF,FF,FF,FF,FF,
24850496,000004E7,false,Rx,0,8,67,01,FE,FF,FF,FF,FF,FF,
24855721,000004C1,false,Rx,0,8,41,01,FE,FF,FF,FF,FF,FF,
24856906,000004F3,false,Rx,0,8,73,01,FE,FF,FF,FF,FF,FF,
24935322,00000130,false,Rx,0,5,40,41,92,0F,E5,00,00,00,
24936541,00000480,false,Rx,0,8,40,02,FE,FF,FF,FF,FF,FF,
24937742,000004E1,false,Rx,0,8,62,12,FE,FF,FF,FF,FF,FF,
25010447,000003BE,false,Rx,0,2,B3,F0,00,00,00,00,00,00,
25034222,00000130,false,Rx,0,5,40,41,92,0F,F6,00,00,00,
25038675,000004E2,false,Rx,0,8,67,02,FE,FF,FF,FF,FF,FF,
25131778,000004E7,false,Rx,0,8,73,12,FE,FF,FF,FF,FF,FF,
25134249,00000130,false,Rx,0,5,40,41,92,0F,07,00,00,00,
25139115,000004ED,false,Rx,0,8,72,11,FF,FF,FF,FF,FF,FF,
25140319,000004F2,false,Rx,0,8,73,11,FE,FF,FF,FF,FF,FF,
25216855,000004F3,false,Rx,0,8,00,02,FE,FF,FF,FF,FF,FF,
25223937,000004F8,false,Rx,0,8,00,11,FE,FF,FF,FF,FF,FF,
25234144,00000130,false,Rx,0,5,40,41,92,0F,18,00,00,00,
25316185,00000480,false,Rx,0,8,40,02,FE,FF,FF,FF,FF,FF,
25334249,00000130,false,Rx,0,5,40,41,92,0F,29,00,00,00,
25411309,000004C0,false,Rx,0,8,41,02,FF,FF,FF,FF,FF,FF,
25434260,00000130,false,Rx,0,5,40,41,92,0F,3A,00,00,00,
25495349,000004C1,false,Rx,0,8,61,12,FE,FF,FF,FF,FF,FF,
25499826,000004E0,false,Rx,0,8,61,01,FF,FF,FF,FF,FF,FF,
25501019,000004D6,false,Rx,0,8,61,11,FF,FF,FF,FF,FF,FF,
25534178,00000130,false,Rx,0,5,40,41,92,0F,4B,00,00,00,
25577258,000004E1,false,Rx,0,8,62,12,FE,FF,FF,FF,FF,FF,
25634190,00000130,false,Rx,0,5,40,41,92,0F,6C,00,00,00,
25658767,000004E2,false,Rx,0,8,67,02,FE,FF,FF,FF,FF,FF,
25734210,00000130,false,Rx,0,5,40,41,92,0F,7D,00,00,00,
25756387,000004E7,false,Rx,0,8,6D,12,FE,FF,FF,FF,FF,FF,
25834301,00000130,false,Rx,0,5,40,41,92,0F,8E,00,00,00,
25839254,000004ED,false,Rx,0,8,72,12,FE,FF,FF,FF,FF,FF,
25934217,00000130,false,Rx,0,5,40,41,92,0F,90,00,00,00,
25939825,000004F2,false,Rx,0,8,73,12,FE,FF,00,40,00,00,
25952366,000003BD,false,Rx,0,2,FD,FF,00,00,00,00,00,00,
26034349,00000130,false,Rx,0,5,40,41,92,0F,A1,00,00,00,
26037041,000004F3,false,Rx,0,8,78,02,FE,FF,FF,FF,FF,FF,
26123887,000004F8,false,Rx,0,8,00,12,FE,FF,FF,FF,FF,FF,
26134317,00000130,false,Rx,0,5,40,41,92,0F,B2,00,00,00,
26216585,00000480,false,Rx,0,8,40,02,FE,FF,FF,FF,FF,FF,
26234372,00000130,false,Rx,0,5,40,41,92,0F,C3,00,00,00,
26315082,000004C0,false,Rx,0,8,41,02,FF,FF,FF,FF,FF,FF,
26334387,00000130,false,Rx,0,5,40,41,92,0F,D4,00,00,00,
26415341,000004C1,false,Rx,0,8,56,12,FE,FF,FF,FF,FF,FF,
26434387,00000130,false,Rx,0,5,40,41,92,0F,E5,00,00,00,
26504598,000004D6,false,Rx,0,8,60,12,FE,FF,FF,FF,FF,FF,
26534390,00000130,false,Rx,0,5,40,41,92,0F,F6,00,00,00,
26599232,000004E0,false,Rx,0,8,61,02,FF,FF,FF,FF,FF,FF,
26634408,00000130,false,Rx,0,5,40,41,92,0F,07,00,00,00,
26690502,000003B3,false,Rx,0,6,11,00,FF,7F,00,F1,00,00,
26697321,000004E1,false,Rx,0,8,62,52,FE,FF,FF,FF,FF,FF,
26734286,00000130,false,Rx,0,5,40,41,92,0F,18,00,00,00,
26779059,000004E2,false,Rx,0,8,67,42,FE,FF,FF,FF,FF,FF,
26834398,00000130,false,Rx,0,5,40,41,92,0F,29,00,00,00,
26864532,000004E7,false,Rx,0,8,6D,52,FE,FF,FF,FF,FF,FF,
26935601,00000130,false,Rx,0,5,40,41,92,0F,3A,00,00,00,
26959492,000004ED,false,Rx,0,8,72,52,FE,FF,FF,FF,FF,FF,
27034339,00000130,false,Rx,0,5,40,41,92,0F,4B,00,00,00,
27060094,000004F2,false,Rx,0,8,73,52,FE,FF,00,40,00,00,
27134416,00000130,false,Rx,0,5,40,41,92,0F,6C,00,00,00,
27157310,000004F3,false,Rx,0,8,78,42,FE,FF,FF,FF,FF,FF,
27234451,00000130,false,Rx,0,5,40,41,92,0F,7D,00,00,00,
27243762,000004F8,false,Rx,0,8,00,52,FE,FF,FF,FF,FF,FF,
27334449,00000130,false,Rx,0,5,40,41,92,0F,8E,00,00,00,
27337103,00000480,false,Rx,0,8,40,42,FE,FF,FF,FF,FF,FF,
27429800,000004C0,false,Rx,0,8,41,42,FF,FF,FF,FF,FF,FF,
27434495,00000130,false,Rx,0,5,40,41,92,0F,90,00,00,00,
27514212,000004C1,false,Rx,0,8,56,52,FE,FF,FF,FF,FF,FF,
27534397,00000130,false,Rx,0,5,40,41,92,0F,A1,00,00,00,
27612292,000004D6,false,Rx,0,8,60,52,FE,FF,FF,FF,FF,FF,
27634455,00000130,false,Rx,0,5,40,41,92,0F,B2,00,00,00,
27700638,000004E0,false,Rx,0,8,61,42,FF,FF,FF,FF,FF,FF,
27734535,00000130,false,Rx,0,5,40,41,92,0F,C3,00,00,00,
27797341,000004E1,false,Rx,0,8,62,52,FE,01,FF,FF,FF,FF,
27834556,00000130,false,Rx,0,5,40,41,92,0F,D4,00,00,00,
27879176,000004E2,false,Rx,0,8,67,42,FE,01,FF,FF,FF,FF,
27934441,00000130,false,Rx,0,5,40,41,92,0F,E5,00,00,00,
27972535,000004E7,false,Rx,0,8,6D,52,FE,01,FF,FF,FF,FF,
28034484,00000130,false,Rx,0,5,40,41,92,0F,F6,00,00,00,
28059697,000004ED,false,Rx,0,8,72,52,FE,01,FF,FF,FF,FF,
28134595,00000130,false,Rx,0,5,40,41,92,0F,07,00,00,00,
28160250,000004F2,false,Rx,0,8,73,52,FE,01,00,40,00,00,
28234483,00000130,false,Rx,0,5,40,41,92,0F,18,00,00,00,
28257592,000004F3,false,Rx,0,8,78,42,FE,01,FF,FF,FF,FF,
28334641,00000130,false,Rx,0,5,40,41,92,0F,29,00,00,00,
28343803,000004F8,false,Rx,0,8,00,52,FE,01,FF,FF,FF,FF,
28434642,00000130,false,Rx,0,5,40,41,92,0F,3A,00,00,00,
28437591,00000480,false,Rx,0,8,40,42,FE,01,FF,FF,FF,FF,
28529712,000004C0,false,Rx,0,8,41,42,FF,01,30,20,EC,03,
28534663,00000130,false,Rx,0,5,40,41,92,0F,4B,00,00,00,
28613876,000004C1,false,Rx,0,8,56,52,FE,01,FF,FF,FF,FF,
28634611,00000130,false,Rx,0,5,40,41,92,0F,6C,00,00,00,
28718122,000004D6,false,Rx,0,8,60,52,FF,01,FF,FF,FF,FF,
28734581,00000130,false,Rx,0,5,40,41,92,0F,7D,00,00,00,
28819602,000004E0,false,Rx,0,8,61,42,FF,01,FF,FF,FF,FF,
28834597,00000130,false,Rx,0,5,40,41,92,0F,8E,00,00,00,
28917231,000004E1,false,Rx,0,8,62,52,FE,01,FF,FF,FF,FF,
28935815,00000130,false,Rx,0,5,40,41,92,0F,90,00,00,00,
29000131,000004E2,false,Rx,0,8,67,42,FE,01,FF,FF,FF,FF,
29034644,00000130,false,Rx,0,5,40,41,92,0F,A1,00,00,00,
29101256,000004E7,false,Rx,0,8,6D,52,FE,01,FF,FF,FF,FF,
29134696,00000130,false,Rx,0,5,40,41,92,0F,B2,00,00,00,
29200856,000004ED,false,Rx,0,8,72,52,FE,01,FF,FF,FF,FF,
29234795,00000130,false,Rx,0,5,40,41,92,0F,C3,00,00,00,
29301346,000004F2,false,Rx,0,8,73,52,FE,01,00,40,00,00,
29334702,00000130,false,Rx,0,5,40,41,92,0F,D4,00,00,00,
29397917,000004F3,false,Rx,0,8,78,42,FE,01,FF,FF,FF,FF,
29434749,00000130,false,Rx,0,5,40,41,92,0F,E5,00,00,00,
29484230,000004F8,false,Rx,0,8,00,52,FE,01,FF,FF,FF,FF,
29534736,00000130,false,Rx,0,5,40,41,92,0F,F6,00,00,00,
29578262,00000480,false,Rx,0,8,40,42,FE,01,FF,FF,FF,FF,
29634770,00000130,false,Rx,0,5,40,41,92,0F,07,00,00,00,
29669935,000004C0,false,Rx,0,8,41,42,FF,01,30,20,EC,03,
29734747,00000130,false,Rx,0,5,40,41,92,0F,18,00,00,00,
29771022,000004C1,false,Rx,0,8,56,52,FE,01,FF,FF,FF,FF,
29834807,00000130,false,Rx,0,5,40,41,92,0F,29,00,00,00,
29864093,000004D6,false,Rx,0,8,60,52,FF,01,FF,FF,FF,FF,
29934694,00000130,false,Rx,0,5,40,41,92,0F,3A,00,00,00,
29959521,000004E0,false,Rx,0,8,61,42,FF,01,FF,FF,FF,FF,
30034728,00000130,false,Rx,0,5,40,41,92,0F,4B,00,00,00,
30057356,000004E1,false,Rx,0,8,62,52,FE,01,FF,FF,FF,FF,
30135125,00000130,false,Rx,0,5,40,41,92,0F,6C,00,00,00,
30139739,000004E2,false,Rx,0,8,67,42,FE,01,FF,FF,FF,FF,
30229098,000004E7,false,Rx,0,8,6D,52,FE,01,FF,FF,FF,FF,
30234854,00000130,false,Rx,0,5,40,41,92,0F,7D,00,00,00,
30320113,000004ED,false,Rx,0,8,72,52,FE,01,FF,FF,FF,FF,
30334826,00000130,false,Rx,0,5,40,41,92,0F,8E,00,00,00,
30420649,000004F2,false,Rx,0,8,73,52,FE,01,00,40,00,00,
30434894,00000130,false,Rx,0,5,40,41,92,0F,90,00,00,00,
30518115,000004F3,false,Rx,0,8,78,42,FE,01,FF,FF,FF,FF,
30534771,00000130,false,Rx,0,5,40,41,92,0F,A1,00,00,00,
30603470,000004F8,false,Rx,0,8,00,52,FE,01,FF,FF,FF,FF,
30634787,00000130,false,Rx,0,5,40,41,92,0F,B2,00,00,00,
30698538,00000480,false,Rx,0,8,40,42,FE,01,FF,FF,FF,FF,
30734803,00000130,false,Rx,0,5,40,41,92,0F,C3,00,00,00,
30789977,000004C0,false,Rx,0,8,41,42,FF,01,30,20,EC,03,
30834823,00000130,false,Rx,0,5,40,41,92,0F,D4,00,00,00,
30890051,000004C1,false,Rx,0,8,56,52,FE,01,FF,FF,FF,FF,
30936039,00000130,false,Rx,0,5,40,41,92,0F,E5,00,00,00,
30953136,000003BD,false,Rx,0,2,FD,FF,00,00,00,00,00,00,
30991469,000004D6,false,Rx,0,8,60,52,FF,01,FF,FF,FF,FF,
31034868,00000130,false,Rx,0,5,40,41,92,0F,F6,00,00,00,
31079051,000004E0,false,Rx,0,8,61,42,FF,01,FF,FF,FF,FF,
31134880,00000130,false,Rx,0,5,40,41,92,0F,07,00,00,00,
31178293,000004E1,false,Rx,0,8,62,52,FE,01,FF,FF,FF,FF,
31234889,00000130,false,Rx,0,5,40,41,92,0F,18,00,00,00,
31259900,000004E2,false,Rx,0,8,67,42,FE,01,FF,FF,FF,FF,
31334887,00000130,false,Rx,0,5,40,41,92,0F,29,00,00,00,
31357197,000004E7,false,Rx,0,8,6D,52,FE,01,FF,FF,FF,FF,
31435003,00000130,false,Rx,0,5,40,41,92,0F,3A,00,00,00,
31440356,000004ED,false,Rx,0,8,72,52,FE,01,FF,FF,FF,FF,
31534994,00000130,false,Rx,0,5,40,41,92,0F,4B,00,00,00,
31542593,000004F2,false,Rx,0,8,73,52,FE,01,00,40,00,00,
31634971,00000130,false,Rx,0,5,40,41,92,0F,6C,00,00,00,
31638410,000004F3,false,Rx,0,8,78,42,FE,01,FF,FF,FF,FF,
31723427,000004F8,false,Rx,0,8,00,52,FE,01,FF,FF,FF,FF,
31734976,00000130,false,Rx,0,5,40,41,92,0F,7D,00,00,00,
31790273,000003B3,false,Rx,0,6,11,00,FF,7F,00,F1,00,00,
31819167,00000480,false,Rx,0,8,40,42,FE,01,FF,FF,FF,FF,
31835094,00000130,false,Rx,0,5,40,41,92,0F,8E,00,00,00,
31910180,000004C0,false,Rx,0,8,41,42,FF,01,30,20,EC,02,
31935008,00000130,false,Rx,0,5,40,41,92,0F,90,00,00,00,
32015410,000004C1,false,Rx,0,8,56,52,FE,01,FF,FF,FF,FF,
32034988,00000130,false,Rx,0,5,40,41,92,0F,A1,00,00,00,
32119872,000004D6,false,Rx,0,8,60,52,FF,01,FF,FF,FF,FF,
32135006,00000130,false,Rx,0,5,40,41,92,0F,B2,00,00,00,
32219964,000004E0,false,Rx,0,8,61,52,FF,01,FF,FF,FF,FF,
32235065,00000130,false,Rx,0,5,40,41,92,0F,C3,00,00,00,
32318323,000004E1,false,Rx,0,8,62,52,FE,01,FF,FF,FF,FF,
32335127,00000130,false,Rx,0,5,40,41,92,0F,D4,00,00,00,
32400248,000004E2,false,Rx,0,8,67,42,FE,01,FF,FF,FF,FF,
32435123,00000130,false,Rx,0,5,40,41,92,0F,E5,00,00,00,
32485492,000004E7,false,Rx,0,8,6D,52,FE,01,FF,FF,FF,FF,
32535156,00000130,false,Rx,0,5,40,41,92,0F,F6,00,00,00,
32580599,000004ED,false,Rx,0,8,72,52,FE,01,FF,FF,FF,FF,
32635150,00000130,false,Rx,0,5,40,41,92,0F,07,00,00,00,
32681024,000004F2,false,Rx,0,8,73,52,FE,01,00,40,00,00,
32735184,00000130,false,Rx,0,5,40,41,92,0F,18,00,00,00,
32778823,000004F3,false,Rx,0,8,78,42,FE,01,FF,FF,FF,FF,
32835161,00000130,false,Rx,0,5,40,41,92,0F,29,00,00,00,
32863406,000004F8,false,Rx,0,8,00,52,FE,01,FF,FF,FF,FF,
32936455,00000130,false,Rx,0,5,40,41,92,0F,3A,00,00,00,
32959677,00000480,false,Rx,0,8,40,52,FE,01,FF,FF,FF,FF,
33035147,00000130,false,Rx,0,5,40,41,92,0F,4B,00,00,00,
33050256,000004C0,false,Rx,0,8,41,42,FF,01,30,20,EC,02,
33135107,00000130,false,Rx,0,5,40,41,92,0F,6C,00,00,00,
33147693,000004C1,false,Rx,0,8,56,52,FE,01,FF,FF,FF,FF,
33235143,00000130,false,Rx,0,5,40,41,92,0F,7D,00,00,00,
33243906,000004D6,false,Rx,0,8,60,52,FF,01,FF,FF,FF,FF,
33335258,00000130,false,Rx,0,5,40,41,92,0F,8E,00,00,00,
33340211,000004E0,false,Rx,0,8,61,52,FF,01,FF,FF,FF,FF,
33435269,00000130,false,Rx,0,5,40,41,92,0F,90,00,00,00,
33438334,000004E1,false,Rx,0,8,62,52,FE,01,FF,FF,FF,FF,
33520419,000004E2,false,Rx,0,8,67,42,FE,01,FF,FF,FF,FF,
33535220,00000130,false,Rx,0,5,40,41,92,0F,A1,00,00,00,
33615142,000004E7,false,Rx,0,8,6D,52,FE,01,FF,FF,FF,FF,
33635299,00000130,false,Rx,0,5,40,41,92,0F,B2,00,00,00,
33700870,000004ED,false,Rx,0,8,72,52,FE,01,FF,FF,FF,FF,
33735319,00000130,false,Rx,0,5,40,41,92,0F,C3,00,00,00,
33803225,000004F2,false,Rx,0,8,73,52,FE,01,00,40,00,00,
33835328,00000130,false,Rx,0,5,40,41,92,0F,D4,00,00,00,
33899095,000004F3,false,Rx,0,8,78,42,FE,01,FF,FF,FF,FF,
33935345,00000130,false,Rx,0,5,40,41,92,0F,E5,00,00,00,
33985784,000004F8,false,Rx,0,8,00,52,FE,01,FF,FF,FF,FF,
34035375,00000130,false,Rx,0,5,40,41,92,0F,F6,00,00,00,
34080251,00000480,false,Rx,0,8,40,52,FE,01,FF,FF,FF,FF,
34135263,00000130,false,Rx,0,5,40,41,92,0F,07,00,00,00,
34170392,000004C0,false,Rx,0,8,41,42,FF,01,30,20,EC,02,
34235323,00000130,false,Rx,0,5,40,41,92,0F,18,00,00,00,
34266662,000004C1,false,Rx,0,8,56,52,FE,01,FF,FF,FF,FF,
34335272,00000130,false,Rx,0,5,40,41,92,0F,29,00,00,00,
34350113,000004D6,false,Rx,0,8,60,52,FF,01,FF,FF,FF,FF,
34435357,00000130,false,Rx,0,5,40,41,92,0F,3A,00,00,00,
34439760,000004E0,false,Rx,0,8,61,52,FF,01,FF,FF,FF,FF,
34535294,00000130,false,Rx,0,5,40,41,92,0F,4B,00,00,00,
34538279,000004E1,false,Rx,0,8,62,52,FE,01,FF,FF,FF,FF,
34610466,000003BE,false,Rx,0,2,B2,F0,00,00,00,00,00,00,
34620789,000004E2,false,Rx,0,8,67,42,FE,01,FF,FF,FF,FF,
34635448,00000130,false,Rx,0,5,40,41,92,0F,6C,00,00,00,
34721956,000004E7,false,Rx,0,8,6D,52,FE,01,FF,FF,FF,FF,
34735419,00000130,false,Rx,0,5,40,41,92,0F,7D,00,00,00,
34821089,000004ED,false,Rx,0,8,72,52,FE,01,FF,FF,FF,FF,
34835482,00000130,false,Rx,0,5,40,41,92,0F,8E,00,00,00,
34921371,000004F2,false,Rx,0,8,73,52,FE,01,00,40,00,00,
34936717,00000130,false,Rx,0,5,40,41,92,0F,90,00,00,00,
35019481,000004F3,false,Rx,0,8,78,42,FE,01,FF,FF,FF,FF,
35035445,00000130,false,Rx,0,5,40,41,92,0F,A1,00,00,00,
35104169,000004F8,false,Rx,0,8,00,52,FE,01,FF,FF,FF,FF,
35135502,00000130,false,Rx,0,5,40,41,92,0F,B2,00,00,00,
35201043,00000480,false,Rx,0,8,40,52,FE,01,FF,FF,FF,FF,
35235540,00000130,false,Rx,0,5,40,41,92,0F,C3,00,00,00,
35290681,000004C0,false,Rx,0,8,41,42,FF,01,30,20,EC,02,
35335521,00000130,false,Rx,0,5,40,41,92,0F,D4,00,00,00,
35385882,000004C1,false,Rx,0,8,56,52,FE,01,FF,FF,FF,FF,
35435579,00000130,false,Rx,0,5,40,41,92,0F,E5,00,00,00,
35477518,000004D6,false,Rx,0,8,60,52,FF,01,FF,FF,FF,FF,
35535573,00000130,false,Rx,0,5,40,41,92,0F,F6,00,00,00,
35559799,000004E0,false,Rx,0,8,61,52,FF,01,FF,FF,FF,FF,
35635605,00000130,false,Rx,0,5,40,41,92,0F,07,00,00,00,
35658415,000004E1,false,Rx,0,8,62,52,FE,01,FF,FF,FF,FF,
35735573,00000130,false,Rx,0,5,40,41,92,0F,18,00,00,00,
35741075,000004E2,false,Rx,0,8,67,42,FE,01,FF,FF,FF,FF,
35830022,000004E7,false,Rx,0,8,6D,52,FE,01,FF,FF,FF,FF,
35835631,00000130,false,Rx,0,5,40,41,92,0F,29,00,00,00,
35921352,000004ED,false,Rx,0,8,72,52,FE,01,FF,FF,FF,FF,
35935638,00000130,false,Rx,0,5,40,41,92,0F,3A,00,00,00,
35954017,000003BD,false,Rx,0,2,FD,FF,00,00,00,00,00,00,
36021623,000004F2,false,Rx,0,8,73,52,FE,01,00,40,00,00,
36035680,00000130,false,Rx,0,5,40,41,92,0F,4B,00,00,00,
36119767,000004F3,false,Rx,0,8,78,42,FE,01,FF,FF,FF,FF,
36135650,00000130,false,Rx,0,5,40,41,92,0F,6C,00,00,00,
36203580,000004F8,false,Rx,0,8,00,52,FE,01,FF,FF,FF,FF,
36235656,00000130,false,Rx,0,5,40,41,92,0F,7D,00,00,00,
36301311,00000480,false,Rx,0,8,40,52,FE,01,FF,FF,FF,FF,
36335686,00000130,false,Rx,0,5,40,41,92,0F,8E,00,00,00,
36390834,000004C0,false,Rx,0,8,41,42,FF,01,30,20,EC,02,
36435696,00000130,false,Rx,0,5,40,41,92,0F,90,00,00,00,
36484804,000004C1,false,Rx,0,8,56,52,FE,01,FF,FF,FF,FF,
36535755,00000130,false,Rx,0,5,40,41,92,0F,A1,00,00,00,
36585605,000004D6,false,Rx,0,8,60,52,FF,01,FF,FF,FF,FF,
36635689,00000130,false,Rx,0,5,40,41,92,0F,B2,00,00,00,
36681593,000004E0,false,Rx,0,8,61,52,FF,01,FF,FF,FF,FF,
36735810,00000130,false,Rx,0,5,40,41,92,0F,C3,00,00,00,
36778776,000004E1,false,Rx,0,8,62,52,FE,01,FF,FF,FF,FF,
36835740,00000130,false,Rx,0,5,40,41,92,0F,D4,00,00,00,
36861303,000004E2,false,Rx,0,8,67,42,FE,01,FF,FF,FF,FF,
36891132,000003B3,false,Rx,0,6,11,00,FF,7F,00,F1,00,00,
36937654,00000130,false,Rx,0,5,40,41,92,0F,E5,00,00,00,
36958299,000004E7,false,Rx,0,8,6D,52,FE,01,FF,FF,FF,FF,
37035763,00000130,false,Rx,0,5,40,41,92,0F,F6,00,00,00,
37041655,000004ED,false,Rx,0,8,72,52,FE,01,FF,FF,FF,FF,
37136493,00000130,false,Rx,0,5,40,41,92,0F,07,00,00,00,
37141826,000004F2,false,Rx,0,8,73,52,FE,01,00,40,00,00,
37235822,00000130,false,Rx,0,5,40,41,92,0F,18,00,00,00,
37240027,000004F3,false,Rx,0,8,78,42,FE,01,FF,FF,FF,FF,
37323677,000004F8,false,Rx,0,8,00,52,FE,01,FF,FF,FF,FF,
37336544,00000130,false,Rx,0,5,40,41,92,0F,29,00,00,00,
37421873,00000480,false,Rx,0,8,40,52,FE,01,FF,FF,FF,FF,
37435880,00000130,false,Rx,0,5,40,41,92,0F,3A,00,00,00,
37511007,000004C0,false,Rx,0,8,41,42,FF,01,30,20,EC,02,
37536562,00000130,false,Rx,0,5,40,41,92,0F,4B,00,00,00,
37604982,000004C1,false,Rx,0,8,56,52,FE,01,FF,FF,FF,FF,
37635890,00000130,false,Rx,0,5,40,41,92,0F,6C,00,00,00,
37689152,000004D6,false,Rx,0,8,60,52,FF,01,FF,FF,FF,FF,
37735906,00000130,false,Rx,0,5,40,41,92,0F,7D,00,00,00,
37779961,000004E0,false,Rx,0,8,61,52,FF,01,FF,FF,FF,FF,
37835908,00000130,false,Rx,0,5,40,41,92,0F,8E,00,00,00,
37878426,000004E1,false,Rx,0,8,62,52,FE,01,FF,FF,FF,FF,
37935925,00000130,false,Rx,0,5,40,41,92,0F,90,00,00,00,
37961522,000004E2,false,Rx,0,8,67,42,FE,01,FF,FF,FF,FF,
38035952,00000130,false,Rx,0,5,40,41,92,0F,A1,00,00,00,
38046118,000004E7,false,Rx,0,8,6D,52,FE,01,FF,FF,FF,FF,
38135921,00000130,false,Rx,0,5,40,41,92,0F,B2,00,00,00,
38141778,000004ED,false,Rx,0,8,72,52,FE,01,FF,FF,FF,FF,
38235969,00000130,false,Rx,0,5,40,41,92,0F,C3,00,00,00,
38241953,000004F2,false,Rx,0,8,73,52,FE,01,00,40,00,00,
38335965,00000130,false,Rx,0,5,40,41,92,0F,D4,00,00,00,
38340407,000004F3,false,Rx,0,8,78,42,FE,01,FF,FF,FF,FF,
38423944,000004F8,false,Rx,0,8,00,52,FE,01,FF,FF,FF,FF,
38435998,00000130,false,Rx,0,5,40,41,92,0F,E5,00,00,00,
38522268,00000480,false,Rx,0,8,40,52,FE,01,FF,FF,FF,FF,
38535884,00000130,false,Rx,0,5,40,41,92,0F,F6,00,00,00,
38611140,000004C0,false,Rx,0,8,41,42,FF,01,30,20,EC,02,
38636031,00000130,false,Rx,0,5,40,41,92,0F,07,00,00,00,
38705836,000004C1,false,Rx,0,8,56,52,FE,01,FF,FF,FF,FF,
38736587,00000130,false,Rx,0,5,40,41,92,0F,18,00,00,00,
38795340,000004D6,false,Rx,0,8,60,52,FF,01,FF,FF,FF,FF,
38836069,00000130,false,Rx,0,5,40,41,92,0F,29,00,00,00,
38881324,000004E0,false,Rx,0,8,61,52,FF,01,FF,FF,FF,FF,
38937311,00000130,false,Rx,0,5,40,41,92,0F,3A,00,00,00,
38979831,000004E1,false,Rx,0,8,62,52,FE,01,FF,FF,FF,FF,
39036105,00000130,false,Rx,0,5,40,41,92,0F,4B,00,00,00,
39061847,000004E2,false,Rx,0,8,67,42,FE,01,FF,FF,FF,FF,
39136061,00000130,false,Rx,0,5,40,41,92,0F,6C,00,00,00,
39154401,000004E7,false,Rx,0,8,6D,52,FE,01,FF,FF,FF,FF,
39236126,00000130,false,Rx,0,5,40,41,92,0F,7D,00,00,00,
39242086,000004ED,false,Rx,0,8,72,52,FE,01,FF,FF,FF,FF,
39335991,00000130,false,Rx,0,5,40,41,92,0F,8E,00,00,00,
39342079,000004F2,false,Rx,0,8,73,52,FE,01,00,40,00,00,
39436026,00000130,false,Rx,0,5,40,41,92,0F,90,00,00,00,
39440562,000004F3,false,Rx,0,8,78,42,FE,01,FF,FF,FF,FF,
39523057,000004F8,false,Rx,0,8,00,52,FE,01,FF,FF,FF,FF,
39536065,00000130,false,Rx,0,5,40,41,92,0F,A1,00,00,00,
39622869,00000480,false,Rx,0,8,40,52,FE,01,FF,FF,FF,FF,
39636062,00000130,false,Rx,0,5,40,41,92,0F,B2,00,00,00,
39711345,000004C0,false,Rx,0,8,41,42,FF,01,30,20,EC,02,
39736165,00000130,false,Rx,0,5,40,41,92,0F,C3,00,00,00,
39802641,000004C1,false,Rx,0,8,56,52,FE,01,FF,FF,FF,FF,
39836116,00000130,false,Rx,0,5,40,41,92,0F,D4,00,00,00,
39901462,000004D6,false,Rx,0,8,60,52,FF,01,FF,FF,FF,FF,
39936137,00000130,false,Rx,0,5,40,41,92,0F,E5,00,00,00,
40001782,000004E0,false,Rx,0,8,61,52,FF,01,FF,FF,FF,FF,
40036126,00000130,false,Rx,0,5,40,41,92,0F,F6,00,00,00,
40098393,000004E1,false,Rx,0,8,62,52,FE,01,FF,FF,FF,FF,
40136168,00000130,false,Rx,0,5,40,41,92,0F,07,00,00,00,
40181995,000004E2,false,Rx,0,8,67,42,FE,01,FF,FF,FF,FF,
40236185,00000130,false,Rx,0,5,40,41,92,0F,18,00,00,00,
40282528,000004E7,false,Rx,0,8,6D,52,FE,01,FF,FF,FF,FF,
40336179,00000130,false,Rx,0,5,40,41,92,0F,29,00,00,00,
40382237,000004ED,false,Rx,0,8,72,52,FE,01,FF,FF,FF,FF,
40436202,00000130,false,Rx,0,5,40,41,92,0F,3A,00,00,00,
40482257,000004F2,false,Rx,0,8,73,52,FE,01,00,40,00,00,
40536217,00000130,false,Rx,0,5,40,41,92,0F,4B,00,00,00,
40580899,000004F3,false,Rx,0,8,78,42,FE,01,FF,FF,FF,FF,
40636226,00000130,false,Rx,0,5,40,41,92,0F,6C,00,00,00,
40663219,000004F8,false,Rx,0,8,00,52,FE,01,FF,FF,FF,FF,
40736277,00000130,false,Rx,0,5,40,41,92,0F,7D,00,00,00,
40763438,00000480,false,Rx,0,8,40,52,FE,01,FF,FF,FF,FF,
40836237,00000130,false,Rx,0,5,40,41,92,0F,8E,00,00,00,
40851382,000004C0,false,Rx,0,8,41,42,FF,01,30,20,EC,02,
40937494,00000130,false,Rx,0,5,40,41,92,0F,90,00,00,00,
40940418,000004C1,false,Rx,0,8,56,52,FE,01,FF,FF,FF,FF,
40955000,000003BD,false,Rx,0,2,FD,FF,00,00,00,00,00,00,
41028085,000004D6,false,Rx,0,8,60,52,FF,01,FF,FF,FF,FF,
41036267,00000130,false,Rx,0,5,40,41,92,0F,A1,00,00,00,
41121828,000004E0,false,Rx,0,8,61,52,FF,01,FF,FF,FF,FF,
41136329,00000130,false,Rx,0,5,40,41,92,0F,B2,00,00,00,
41218633,000004E1,false,Rx,0,8,62,52,FE,01,FF,FF,FF,FF,
41236301,00000130,false,Rx,0,5,40,41,92,0F,C3,00,00,00,
41302256,000004E2,false,Rx,0,8,67,42,FE,01,FF,FF,FF,FF,
41336330,00000130,false,Rx,0,5,40,41,92,0F,D4,00,00,00,
41390628,000004E7,false,Rx,0,8,6D,52,FE,01,FF,FF,FF,FF,
41436323,00000130,false,Rx,0,5,40,41,92,0F,E5,00,00,00,
41482535,000004ED,false,Rx,0,8,72,52,FE,01,FF,FF,FF,FF,
41536368,00000130,false,Rx,0,5,40,41,92,0F,F6,00,00,00,
41582605,000004F2,false,Rx,0,8,73,52,FE,01,00,40,00,00,
41636451,00000130,false,Rx,0,5,40,41,92,0F,07,00,00,00,
41681366,000004F3,false,Rx,0,8,78,42,FE,01,FF,FF,FF,FF,
41736400,00000130,false,Rx,0,5,40,41,92,0F,18,00,00,00,
41762995,000004F8,false,Rx,0,8,00,52,FE,01,FF,FF,FF,FF,
41836362,00000130,false,Rx,0,5,40,41,92,0F,29,00,00,00,
41864443,00000480,false,Rx,0,8,40,52,FE,01,FF,FF,FF,FF,
41936548,00000130,false,Rx,0,5,40,41,92,0F,3A,00,00,00,
41951686,000004C0,false,Rx,0,8,41,42,FF,01,30,20,EC,02,
41992477,000003B3,false,Rx,0,6,11,00,FF,7F,00,F1,00,00,
42036548,00000130,false,Rx,0,5,40,41,92,0F,4B,00,00,00,
42039762,000004C1,false,Rx,0,8,56,52,FE,01,FF,FF,FF,FF,
42134397,000004D6,false,Rx,0,8,60,52,FF,01,FF,FF,FF,FF,
42136552,00000130,false,Rx,0,5,40,41,92,0F,6C,00,00,00,
42221383,000004E0,false,Rx,0,8,61,52,FF,01,FF,FF,FF,FF,
42236561,00000130,false,Rx,0,5,40,41,92,0F,7D,00,00,00,
42321444,000004E1,false,Rx,0,8,62,52,FE,01,FF,FF,FF,FF,
42336550,00000130,false,Rx,0,5,40,41,92,0F,8E,00,00,00,
42422647,000004E2,false,Rx,0,8,67,42,FE,01,FF,FF,FF,FF,
42436601,00000130,false,Rx,0,5,40,41,92,0F,90,00,00,00,
42521393,000004E7,false,Rx,0,8,6D,52,FE,01,FF,FF,FF,FF,
42536583,00000130,false,Rx,0,5,40,41,92,0F,A1,00,00,00,
42602851,000004ED,false,Rx,0,8,72,52,FE,01,FF,FF,FF,FF,
42636617,00000130,false,Rx,0,5,40,41,92,0F,B2,00,00,00,
42704629,000004F2,false,Rx,0,8,73,52,FE,01,00,40,00,00,
42736634,00000130,false,Rx,0,5,40,41,92,0F,C3,00,00,00,
42801643,000004F3,false,Rx,0,8,78,42,FE,01,FF,FF,FF,FF,
42836707,00000130,false,Rx,0,5,40,41,92,0F,D4,00,00,00,
42883137,000004F8,false,Rx,0,8,00,52,FE,01,FF,FF,FF,FF,
42937917,00000130,false,Rx,0,5,40,41,92,0F,E5,00,00,00,
42965448,00000480,false,Rx,0,8,40,52,FE,01,FF,FF,FF,FF,
43036685,00000130,false,Rx,0,5,40,41,92,0F,F6,00,00,00,
43051863,000004C0,false,Rx,0,8,41,42,FF,01,30,20,EC,02,
43136700,00000130,false,Rx,0,5,40,41,92,0F,07,00,00,00,
43138612,000004C1,false,Rx,0,8,56,52,FE,01,FF,FF,FF,FF,
43236711,00000130,false,Rx,0,5,40,41,92,0F,18,00,00,00,
43240563,000004D6,false,Rx,0,8,60,52,FF,01,FF,FF,FF,FF,
43322425,000004E0,false,Rx,0,8,61,52,FF,01,FF,FF,FF,FF,
43336714,00000130,false,Rx,0,5,40,41,92,0F,29,00,00,00,
43419806,000004E1,false,Rx,0,8,62,52,FE,01,FF,FF,FF,FF,
43436762,00000130,false,Rx,0,5,40,41,92,0F,3A,00,00,00,
43502773,000004E2,false,Rx,0,8,67,42,FE,01,FF,FF,FF,FF,
43536647,00000130,false,Rx,0,5,40,41,92,0F,4B,00,00,00,
43587185,000004E7,false,Rx,0,8,6D,52,FE,01,FF,FF,FF,FF,
43636800,00000130,false,Rx,0,5,40,41,92,0F,6C,00,00,00,
43683076,000004ED,false,Rx,0,8,72,52,FE,01,FF,FF,FF,FF,
43736801,00000130,false,Rx,0,5,40,41,92,0F,7D,00,00,00,
43782962,000004F2,false,Rx,0,8,73,52,FE,01,00,40,00,00,
43836808,00000130,false,Rx,0,5,40,41,92,0F,8E,00,00,00,
43882022,000004F3,false,Rx,0,8,78,42,FE,01,FF,FF,FF,FF,
43936828,00000130,false,Rx,0,5,40,41,92,0F,90,00,00,00,
43983087,000004F8,false,Rx,0,8,00,52,FE,01,FF,FF,FF,FF,
44036769,00000130,false,Rx,0,5,40,41,92,0F,A1,00,00,00,
44065486,00000480,false,Rx,0,8,40,52,FE,01,FF,FF,FF,FF,
44137217,00000130,false,Rx,0,5,40,41,92,0F,B2,00,00,00,
44151970,000004C0,false,Rx,0,8,41,42,FF,01,30,20,EC,02,
44236812,00000130,false,Rx,0,5,40,41,92,0F,C3,00,00,00,
44237989,000004C1,false,Rx,0,8,56,52,FE,01,FF,FF,FF,FF,
44326151,000004D6,false,Rx,0,8,60,52,FF,01,FF,FF,FF,FF,
44336797,00000130,false,Rx,0,5,40,41,92,0F,D4,00,00,00,
44420988,000004E0,false,Rx,0,8,61,52,FF,01,FF,FF,FF,FF,
44436788,00000130,false,Rx,0,5,40,41,92,0F,E5,00,00,00,
44522413,000004E1,false,Rx,0,8,62,52,FE,01,FF,FF,FF,FF,
44536833,00000130,false,Rx,0,5,40,41,92,0F,F6,00,00,00,
44611699,000003BE,false,Rx,0,2,B1,F0,00,00,00,00,00,00,
44623072,000004E2,false,Rx,0,8,67,42,FE,01,FF,FF,FF,FF,
44636815,00000130,false,Rx,0,5,40,41,92,0F,07,00,00,00,
44714951,000004E7,false,Rx,0,8,6D,52,FE,01,FF,FF,FF,FF,
44736873,00000130,false,Rx,0,5,40,41,92,0F,18,00,00,00,
44803259,000004ED,false,Rx,0,8,72,52,FE,01,FF,FF,FF,FF,
44836859,00000130,false,Rx,0,5,40,41,92,0F,29,00,00,00,
44903178,000004F2,false,Rx,0,8,73,52,FE,01,00,40,00,00,
44938222,00000130,false,Rx,0,5,40,41,92,0F,3A,00,00,00,
45002320,000004F3,false,Rx,0,8,78,42,FE,01,FF,FF,FF,FF,
45036876,00000130,false,Rx,0,5,40,41,92,0F,4B,00,00,00,
45102940,000004F8,false,Rx,0,8,00,52,FE,01,FF,FF,FF,FF,
45136918,00000130,false,Rx,0,5,40,41,92,0F,6C,00,00,00,
45186135,00000480,false,Rx,0,8,40,52,FE,01,FF,FF,FF,FF,
45236915,00000130,false,Rx,0,5,40,41,92,0F,7D,00,00,00,
45272047,000004C0,false,Rx,0,8,41,42,FF,01,30,20,EC,02,
45336935,00000130,false,Rx,0,5,40,41,92,0F,8E,00,00,00,
45357310,000004C1,false,Rx,0,8,56,52,FE,01,FF,FF,FF,FF,
45437030,00000130,false,Rx,0,5,40,41,92,0F,90,00,00,00,
45452947,000004D6,false,Rx,0,8,60,52,FF,01,FF,FF,FF,FF,
45537091,00000130,false,Rx,0,5,40,41,92,0F,A1,00,00,00,
45541570,000004E0,false,Rx,0,8,61,52,FF,01,FF,FF,FF,FF,
45637069,00000130,false,Rx,0,5,40,41,92,0F,B2,00,00,00,
45638716,000004E1,false,Rx,0,8,62,52,FE,01,FF,FF,FF,FF,
45723427,000004E2,false,Rx,0,8,67,42,FE,01,FF,FF,FF,FF,
45737119,00000130,false,Rx,0,5,40,41,92,0F,C3,00,00,00,
45823124,000004E7,false,Rx,0,8,6D,52,FE,01,FF,FF,FF,FF,
45837037,00000130,false,Rx,0,5,40,41,92,0F,D4,00,00,00,
45925651,000004ED,false,Rx,0,8,72,52,FE,01,FF,FF,FF,FF,
45937042,00000130,false,Rx,0,5,40,41,92,0F,E5,00,00,00,
45955920,000003BD,false,Rx,0,2,FD,FF,00,00,00,00,00,00,
46023279,000004F2,false,Rx,0,8,73,52,FE,01,00,40,00,00,
46037033,00000130,false,Rx,0,5,40,41,92,0F,F6,00,00,00,
46124464,000004F3,false,Rx,0,8,78,42,FE,01,FF,FF,FF,FF,
46137076,00000130,false,Rx,0,5,40,41,92,0F,07,00,00,00,
46222882,000004F8,false,Rx,0,8,00,52,FE,01,FF,FF,FF,FF,
46238172,00000130,false,Rx,0,5,40,41,92,0F,18,00,00,00,
46306252,00000480,false,Rx,0,8,40,52,FE,01,FF,FF,FF,FF,
46337226,00000130,false,Rx,0,5,40,41,92,0F,29,00,00,00,
46392354,000004C0,false,Rx,0,8,41,42,FF,01,30,20,EC,02,
46437234,00000130,false,Rx,0,5,40,41,92,0F,3A,00,00,00,
46475654,000004C1,false,Rx,0,8,56,52,FE,01,FF,FF,FF,FF,
46537229,00000130,false,Rx,0,5,40,41,92,0F,4B,00,00,00,
46559053,000004D6,false,Rx,0,8,60,52,FF,01,FF,FF,FF,FF,
46637148,00000130,false,Rx,0,5,40,41,92,0F,6C,00,00,00,
46642173,000004E0,false,Rx,0,8,61,52,FF,01,FF,FF,FF,FF,
46737193,00000130,false,Rx,0,5,40,41,92,0F,7D,00,00,00,
46738596,000004E1,false,Rx,0,8,62,52,FE,01,FF,FF,FF,FF,
46823622,000004E2,false,Rx,0,8,67,42,FE,01,FF,FF,FF,FF,
46837181,00000130,false,Rx,0,5,40,41,92,0F,8E,00,00,00,
46911189,000004E7,false,Rx,0,8,6D,52,FE,01,FF,FF,FF,FF,
46938544,00000130,false,Rx,0,5,40,41,92,0F,90,00,00,00,
47003870,000004ED,false,Rx,0,8,72,52,FE,01,FF,FF,FF,FF,
47037344,00000130,false,Rx,0,5,40,41,92,0F,A1,00,00,00,
47093042,000003B3,false,Rx,0,6,11,00,FF,7F,00,F1,00,00,
47103627,000004F2,false,Rx,0,8,73,52,FE,01,00,40,00,00,
47137336,00000130,false,Rx,0,5,40,41,92,0F,B2,00,00,00,
47203013,000004F3,false,Rx,0,8,78,42,FE,01,FF,FF,FF,FF,
47237344,00000130,false,Rx,0,5,40,41,92,0F,C3,00,00,00,
47302794,000004F8,false,Rx,0,8,00,52,FE,01,FF,FF,FF,FF,
47337212,00000130,false,Rx,0,5,40,41,92,0F,D4,00,00,00,
47387223,00000480,false,Rx,0,8,40,52,FE,01,FF,FF,FF,FF,
47437392,00000130,false,Rx,0,5,40,41,92,0F,E5,00,00,00,
47472533,000004C0,false,Rx,0,8,41,42,FF,01,30,20,EC,02,
47537291,00000130,false,Rx,0,5,40,41,92,0F,F6,00,00,00,
47554552,000004C1,false,Rx,0,8,56,52,FE,01,FF,FF,FF,FF,
47637330,00000130,false,Rx,0,5,40,41,92,0F,07,00,00,00,
47645382,000004D6,false,Rx,0,8,60,52,FF,01,FF,FF,FF,FF,
47737288,00000130,false,Rx,0,5,40,41,92,0F,18,00,00,00,
47741889,000004E0,false,Rx,0,8,61,52,FF,01,FF,FF,FF,FF,
47837341,00000130,false,Rx,0,5,40,41,92,0F,29,00,00,00,
47838627,000004E1,false,Rx,0,8,62,52,FE,01,FF,FF,FF,FF,
47924036,000004E2,false,Rx,0,8,67,42,FE,01,FF,FF,FF,FF,
47937335,00000130,false,Rx,0,5,40,41,92,0F,3A,00,00,00,
48021974,000004E7,false,Rx,0,8,6D,52,FE,01,FF,FF,FF,FF,
48037380,00000130,false,Rx,0,5,40,41,92,0F,4B,00,00,00,
48104004,000004ED,false,Rx,0,8,72,52,FE,01,FF,FF,FF,FF,
48137398,00000130,false,Rx,0,5,40,41,92,0F,6C,00,00,00,
48203695,000004F2,false,Rx,0,8,73,52,FE,01,00,40,00,00,
48237390,00000130,false,Rx,0,5,40,41,92,0F,7D,00,00,00,
48303219,000004F3,false,Rx,0,8,78,42,FE,01,FF,FF,FF,FF,
48337410,00000130,false,Rx,0,5,40,41,92,0F,8E,00,00,00,
48402789,000004F8,false,Rx,0,8,00,52,FE,01,FF,FF,FF,FF,
48437452,00000130,false,Rx,0,5,40,41,92,0F,90,00,00,00,
48487273,00000480,false,Rx,0,8,40,52,FE,01,FF,FF,FF,FF,
48537477,00000130,false,Rx,0,5,40,41,92,0F,A1,00,00,00,
48572561,000004C0,false,Rx,0,8,41,42,FF,01,30,20,EC,02,
48637494,00000130,false,Rx,0,5,40,41,92,0F,B2,00,00,00,
48673297,000004C1,false,Rx,0,8,56,52,FE,01,FF,FF,FF,FF,
48737484,00000130,false,Rx,0,5,40,41,92,0F,C3,00,00,00,
48771409,000004D6,false,Rx,0,8,60,52,FF,01,FF,FF,FF,FF,
48837466,00000130,false,Rx,0,5,40,41,92,0F,D4,00,00,00,
48863094,000004E0,false,Rx,0,8,61,52,FF,01,FF,FF,FF,FF,
48938859,00000130,false,Rx,0,5,40,41,92,0F,E5,00,00,00,
48959850,000004E1,false,Rx,0,8,62,52,FE,01,FF,FF,FF,FF,
49037629,00000130,false,Rx,0,5,40,41,92,0F,F6,00,00,00,
49044261,000004E2,false,Rx,0,8,67,42,FE,01,FF,FF,FF,FF,
49127370,000004E7,false,Rx,0,8,6D,52,FE,01,FF,FF,FF,FF,
49137579,00000130,false,Rx,0,5,40,41,92,0F,07,00,00,00,
49224384,000004ED,false,Rx,0,8,72,52,FE,01,FF,FF,FF,FF,
49237551,00000130,false,Rx,0,5,40,41,92,0F,18,00,00,00,
49324671,000004F2,false,Rx,0,8,73,52,FE,01,00,40,00,00,
49337687,00000130,false,Rx,0,5,40,41,92,0F,29,00,00,00,
49423647,000004F3,false,Rx,0,8,78,42,FE,01,FF,FF,FF,FF,
49437683,00000130,false,Rx,0,5,40,41,92,0F,3A,00,00,00,
49524967,000004F8,false,Rx,0,8,00,52,FE,01,FF,FF,FF,FF,
49537638,00000130,false,Rx,0,5,40,41,92,0F,4B,00,00,00,
49607827,00000480,false,Rx,0,8,40,52,FE,01,FF,FF,FF,FF,
49637627,00000130,false,Rx,0,5,40,41,92,0F,6C,00,00,00,
49692856,000004C0,false,Rx,0,8,41,42,FF,01,30,20,EC,02,
49737619,00000130,false,Rx,0,5,40,41,92,0F,7D,00,00,00,
49793439,000004C1,false,Rx,0,8,56,52,FE,01,FF,FF,FF,FF,
49837643,00000130,false,Rx,0,5,40,41,92,0F,8E,00,00,00,
49877675,000004D6,false,Rx,0,8,60,52,FF,01,FF,FF,FF,FF,
49937720,00000130,false,Rx,0,5,40,41,92,0F,90,00,00,00,
49963252,000004E0,false,Rx,0,8,61,52,FF,01,FF,FF,FF,FF,
50037808,00000130,false,Rx,0,5,40,41,92,0F,A1,00,00,00,
50058834,000004E1,false,Rx,0,8,62,52,FE,01,FF,FF,FF,FF,
50137721,00000130,false,Rx,0,5,40,41,92,0F,B2,00,00,00,
50144426,000004E2,false,Rx,0,8,67,42,FE,01,FF,FF,FF,FF,
50235575,000004E7,false,Rx,0,8,6D,52,FE,01,FF,FF,FF,FF,
50237836,00000130,false,Rx,0,5,40,41,92,0F,C3,00,00,00,
50325186,000004ED,false,Rx,0,8,72,52,FE,01,FF,FF,FF,FF,
50337722,00000130,false,Rx,0,5,40,41,92,0F,D4,00,00,00,
50424137,000004F2,false,Rx,0,8,73,52,FE,01,00,40,00,00,
50437726,00000130,false,Rx,0,5,40,41,92,0F,E5,00,00,00,
50525285,000004F3,false,Rx,0,8,78,42,FE,01,FF,FF,FF,FF,
50537731,00000130,false,Rx,0,5,40,41,92,0F,F6,00,00,00,
50624096,000004F8,false,Rx,0,8,00,52,FE,01,FF,FF,FF,FF,
50637869,00000130,false,Rx,0,5,40,41,92,0F,07,00,00,00,
50709548,00000480,false,Rx,0,8,40,52,FE,01,FF,FF,FF,FF,
50737913,00000130,false,Rx,0,5,40,41,92,0F,18,00,00,00,
50793034,000004C0,false,Rx,0,8,41,42,FF,01,30,20,EC,02,
50837824,00000130,false,Rx,0,5,40,41,92,0F,29,00,00,00,
50892305,000004C1,false,Rx,0,8,56,52,FE,01,FF,FF,FF,FF,
50939041,00000130,false,Rx,0,5,40,41,92,0F,3A,00,00,00,
50956792,000003BD,false,Rx,0,2,FD,FF,00,00,00,00,00,00,
50983850,000004D6,false,Rx,0,8,60,52,FF,01,FF,FF,FF,FF,
51037840,00000130,false,Rx,0,5,40,41,92,0F,4B,00,00,00,
51083493,000004E0,false,Rx,0,8,61,52,FF,01,FF,FF,FF,FF,
51137848,00000130,false,Rx,0,5,40,41,92,0F,6C,00,00,00,
51179406,000004E1,false,Rx,0,8,62,52,FE,01,FF,FF,FF,FF,
51238003,00000130,false,Rx,0,5,40,41,92,0F,7D,00,00,00,
51264759,000004E2,false,Rx,0,8,67,42,FE,01,FF,FF,FF,FF,
51337897,00000130,false,Rx,0,5,40,41,92,0F,8E,00,00,00,
51363740,000004E7,false,Rx,0,8,6D,52,FE,01,FF,FF,FF,FF,
51438120,00000130,false,Rx,0,5,40,41,92,0F,90,00,00,00,
51464817,000004ED,false,Rx,0,8,72,52,FE,01,FF,FF,FF,FF,
51537953,00000130,false,Rx,0,5,40,41,92,0F,A1,00,00,00,
51564331,000004F2,false,Rx,0,8,73,52,FE,01,00,40,00,00,
51637948,00000130,false,Rx,0,5,40,41,92,0F,B2,00,00,00,
51664209,000004F3,false,Rx,0,8,78,42,FE,01,FF,FF,FF,FF,
51737993,00000130,false,Rx,0,5,40,41,92,0F,C3,00,00,00,
51762763,000004F8,false,Rx,0,8,00,52,FE,01,FF,FF,FF,FF,
51837959,00000130,false,Rx,0,5,40,41,92,0F,D4,00,00,00,
51848814,00000480,false,Rx,0,8,40,52,FE,01,FF,FF,FF,FF,
51933220,000004C0,false,Rx,0,8,41,42,FF,01,30,20,EC,02,
51938110,00000130,false,Rx,0,5,40,41,92,0F,E5,00,00,00,
52030177,000004C1,false,Rx,0,8,56,52,FE,01,FF,FF,FF,FF,
52038003,00000130,false,Rx,0,5,40,41,92,0F,F6,00,00,00,
52130963,000004D6,false,Rx,0,8,60,52,FF,01,FF,FF,FF,FF,
52137996,00000130,false,Rx,0,5,40,41,92,0F,07,00,00,00,
52193976,000003B3,false,Rx,0,6,11,00,FF,7F,00,F1,00,00,
52224065,000004E0,false,Rx,0,8,61,52,FF,01,FF,FF,FF,FF,
52238033,00000130,false,Rx,0,5,40,41,92,0F,18,00,00,00,
52318947,000004E1,false,Rx,0,8,62,52,FE,01,FF,FF,FF,FF,
52338088,00000130,false,Rx,0,5,40,41,92,0F,29,00,00,00,
52405017,000004E2,false,Rx,0,8,67,42,FE,01,FF,FF,FF,FF,
52438081,00000130,false,Rx,0,5,40,41,92,0F,3A,00,00,00,
52491986,000004E7,false,Rx,0,8,6D,52,FE,01,FF,FF,FF,FF,
52538093,00000130,false,Rx,0,5,40,41,92,0F,4B,00,00,00,
52585133,000004ED,false,Rx,0,8,72,52,FE,01,FF,FF,FF,FF,
52638074,00000130,false,Rx,0,5,40,41,92,0F,6C,00,00,00,
52684564,000004F2,false,Rx,0,8,73,52,FE,01,00,40,00,00,
52738158,00000130,false,Rx,0,5,40,41,92,0F,7D,00,00,00,
52784561,000004F3,false,Rx,0,8,78,42,FE,01,FF,FF,FF,FF,
52838217,00000130,false,Rx,0,5,40,41,92,0F,8E,00,00,00,
52882816,000004F8,false,Rx,0,8,00,52,FE,01,FF,FF,FF,FF,
52939478,00000130,false,Rx,0,5,40,41,92,0F,90,00,00,00,
52969444,00000480,false,Rx,0,8,40,52,FE,01,FF,FF,FF,FF,
53038166,00000130,false,Rx,0,5,40,41,92,0F,A1,00,00,00,
53053430,000004C0,false,Rx,0,8,41,42,FF,01,30,20,EC,02,
53138184,00000130,false,Rx,0,5,40,41,92,0F,B2,00,00,00,
53149145,000004C1,false,Rx,0,8,56,52,FE,01,FF,FF,FF,FF,
53237145,000004D6,false,Rx,0,8,60,52,FF,01,FF,FF,FF,FF,
53238193,00000130,false,Rx,0,5,40,41,92,0F,C3,00,00,00,
53325478,000004E0,false,Rx,0,8,61,52,FF,01,FF,FF,FF,FF,
53338218,00000130,false,Rx,0,5,40,41,92,0F,D4,00,00,00,
53418983,000004E1,false,Rx,0,8,62,52,FE,01,FF,FF,FF,FF,
53438308,00000130,false,Rx,0,5,40,41,92,0F,E5,00,00,00,
53505401,000004E2,false,Rx,0,8,67,42,FE,01,FF,FF,FF,FF,
53538358,00000130,false,Rx,0,5,40,41,92,0F,F6,00,00,00,
53600214,000004E7,false,Rx,0,8,6D,52,FE,01,FF,FF,FF,FF,
53638363,00000130,false,Rx,0,5,40,41,92,0F,07,00,00,00,
53687394,000004ED,false,Rx,0,8,72,52,FE,01,FF,FF,FF,FF,
53738394,00000130,false,Rx,0,5,40,41,92,0F,18,00,00,00,
53784870,000004F2,false,Rx,0,8,73,52,FE,01,00,40,00,00,
53838389,00000130,false,Rx,0,5,40,41,92,0F,29,00,00,00,
53884970,000004F3,false,Rx,0,8,78,42,FE,01,FF,FF,FF,FF,
53938432,00000130,false,Rx,0,5,40,41,92,0F,3A,00,00,00,
53982801,000004F8,false,Rx,0,8,00,52,FE,01,FF,FF,FF,FF,
54038325,00000130,false,Rx,0,5,40,41,92,0F,4B,00,00,00,
54070002,00000480,false,Rx,0,8,40,52,FE,01,FF,FF,FF,FF,
54138452,00000130,false,Rx,0,5,40,41,92,0F,6C,00,00,00,
54153602,000004C0,false,Rx,0,8,41,42,FF,01,30,20,EC,02,
54238478,00000130,false,Rx,0,5,40,41,92,0F,7D,00,00,00,
54248227,000004C1,false,Rx,0,8,56,52,FE,01,FF,FF,FF,FF,
54338385,00000130,false,Rx,0,5,40,41,92,0F,8E,00,00,00,
54343303,000004D6,false,Rx,0,8,60,52,FF,01,FF,FF,FF,FF,
54438492,00000130,false,Rx,0,5,40,41,92,0F,90,00,00,00,
54443110,000004E0,false,Rx,0,8,61,52,FF,01,FF,FF,FF,FF,
54538400,00000130,false,Rx,0,5,40,41,92,0F,A1,00,00,00,
54539632,000004E1,false,Rx,0,8,62,52,FE,01,FF,FF,FF,FF,
54613070,000003BE,false,Rx,0,2,B0,F0,00,00,00,00,00,00,
54625599,000004E2,false,Rx,0,8,67,42,FE,01,FF,FF,FF,FF,
54638423,00000130,false,Rx,0,5,40,41,92,0F,B2,00,00,00,
54710536,000004E7,false,Rx,0,8,6D,52,FE,01,FF,FF,FF,FF,
54738436,00000130,false,Rx,0,5,40,41,92,0F,C3,00,00,00,
54805600,000004ED,false,Rx,0,8,72,52,FE,01,FF,FF,FF,FF,
54838490,00000130,false,Rx,0,5,40,41,92,0F,D4,00,00,00,
54905022,000004F2,false,Rx,0,8,73,52,FE,01,00,40,00,00,
54939708,00000130,false,Rx,0,5,40,41,92,0F,E5,00,00,00,
55005223,000004F3,false,Rx,0,8,78,42,FE,01,FF,FF,FF,FF,
55038489,00000130,false,Rx,0,5,40,41,92,0F,F6,00,00,00,
55102660,000004F8,false,Rx,0,8,00,52,FE,01,FF,FF,FF,FF,
55138506,00000130,false,Rx,0,5,40,41,92,0F,07,00,00,00,
55190494,00000480,false,Rx,0,8,40,52,FE,01,FF,FF,FF,FF,
55238509,00000130,false,Rx,0,5,40,41,92,0F,18,00,00,00,
55273640,000004C0,false,Rx,0,8,41,42,FF,01,30,20,EC,02,
55338514,00000130,false,Rx,0,5,40,41,92,0F,29,00,00,00,
55368430,000004C1,false,Rx,0,8,56,52,FE,01,FF,FF,FF,FF,
55438566,00000130,false,Rx,0,5,40,41,92,0F,3A,00,00,00,
55469987,000004D6,false,Rx,0,8,60,52,FF,01,FF,FF,FF,FF,
55538550,00000130,false,Rx,0,5,40,41,92,0F,4B,00,00,00,
55563617,000004E0,false,Rx,0,8,61,52,FF,01,FF,FF,FF,FF,
55638605,00000130,false,Rx,0,5,40,41,92,0F,6C,00,00,00,
55658950,000004E1,false,Rx,0,8,62,52,FE,01,FF,FF,FF,FF,
55738580,00000130,false,Rx,0,5,40,41,92,0F,7D,00,00,00,
55745857,000004E2,false,Rx,0,8,67,42,FE,01,FF,FF,FF,FF,
55836460,000004E7,false,Rx,0,8,6D,52,FE,01,FF,FF,FF,FF,
55838617,00000130,false,Rx,0,5,40,41,92,0F,8E,00,00,00,
55927984,000004ED,false,Rx,0,8,72,52,FE,01,FF,FF,FF,FF,
55938624,00000130,false,Rx,0,5,40,41,92,0F,90,00,00,00,
55957828,000003BD,false,Rx,0,2,FD,FF,00,00,00,00,00,00,
56025947,000004F2,false,Rx,0,8,73,52,FE,01,00,40,00,00,
56038662,00000130,false,Rx,0,5,40,41,92,0F,A1,00,00,00,
56128092,000004F3,false,Rx,0,8,78,42,FE,01,FF,FF,FF,FF,
56138675,00000130,false,Rx,0,5,40,41,92,0F,B2,00,00,00,
56226136,000004F8,false,Rx,0,8,00,52,FE,01,FF,FF,FF,FF,
56238692,00000130,false,Rx,0,5,40,41,92,0F,C3,00,00,00,
56311049,00000480,false,Rx,0,8,40,52,FE,01,FF,FF,FF,FF,
56338713,00000130,false,Rx,0,5,40,41,92,0F,D4,00,00,00,
56393834,000004C0,false,Rx,0,8,41,42,FF,01,30,20,EC,02,
56438732,00000130,false,Rx,0,5,40,41,92,0F,E5,00,00,00,
56487979,000004C1,false,Rx,0,8,56,52,FE,01,FF,FF,FF,FF,
56538752,00000130,false,Rx,0,5,40,41,92,0F,F6,00,00,00,
56576234,000004D6,false,Rx,0,8,60,52,FF,01,FF,FF,FF,FF,
56638770,00000130,false,Rx,0,5,40,41,92,0F,07,00,00,00,
56664929,000004E0,false,Rx,0,8,61,52,FF,01,FF,FF,FF,FF,
56738770,00000130,false,Rx,0,5,40,41,92,0F,18,00,00,00,
56759499,000004E1,false,Rx,0,8,62,52,FE,01,FF,FF,FF,FF,
56838783,00000130,false,Rx,0,5,40,41,92,0F,29,00,00,00,
56846158,000004E2,false,Rx,0,8,67,42,FE,01,FF,FF,FF,FF,
56940149,00000130,false,Rx,0,5,40,41,92,0F,3A,00,00,00,
56944741,000004E7,false,Rx,0,8,6D,52,FE,01,FF,FF,FF,FF,
57026482,000004ED,false,Rx,0,8,72,52,FE,01,FF,FF,FF,FF,
57038822,00000130,false,Rx,0,5,40,41,92,0F,4B,00,00,00,
57130813,000004F2,false,Rx,0,8,73,52,FE,01,00,40,00,00,
57138841,00000130,false,Rx,0,5,40,41,92,0F,6C,00,00,00,
57226583,000004F3,false,Rx,0,8,78,42,FE,01,FF,FF,FF,FF,
57238862,00000130,false,Rx,0,5,40,41,92,0F,7D,00,00,00,
57295414,000003B3,false,Rx,0,6,11,00,FF,7F,00,F1,00,00,
57322586,000004F8,false,Rx,0,8,00,52,FE,01,FF,FF,FF,FF,
57338904,00000130,false,Rx,0,5,40,41,92,0F,8E,00,00,00,
57411565,00000480,false,Rx,0,8,40,52,FE,01,FF,FF,FF,FF,
57438856,00000130,false,Rx,0,5,40,41,92,0F,90,00,00,00,
57493996,000004C0,false,Rx,0,8,41,42,FF,01,30,20,EC,02,
57538877,00000130,false,Rx,0,5,40,41,92,0F,A1,00,00,00,
57586209,000004C1,false,Rx,0,8,56,52,FE,01,FF,FF,FF,FF,
57638829,00000130,false,Rx,0,5,40,41,92,0F,B2,00,00,00,
57682315,000004D6,false,Rx,0,8,60,52,FF,01,FF,FF,FF,FF,
57738836,00000130,false,Rx,0,5,40,41,92,0F,C3,00,00,00,
57763726,000004E0,false,Rx,0,8,61,52,FF,01,FF,FF,FF,FF,
57838779,00000130,false,Rx,0,5,40,41,92,0F,D4,00,00,00,
57858852,000004E1,false,Rx,0,8,62,52,FE,01,FF,FF,FF,FF,
57938886,00000130,false,Rx,0,5,40,41,92,0F,E5,00,00,00,
57946321,000004E2,false,Rx,0,8,67,42,FE,01,FF,FF,FF,FF,
58032375,000004E7,false,Rx,0,8,6D,52,FE,01,FF,FF,FF,FF,
58038751,00000130,false,Rx,0,5,40,41,92,0F,F6,00,00,00,
58128784,000004ED,false,Rx,0,8,72,52,FE,01,FF,FF,FF,FF,
58138707,00000130,false,Rx,0,5,40,41,92,0F,07,00,00,00,
58225474,000004F2,false,Rx,0,8,73,52,FE,01,00,40,00,00,
58238651,00000130,false,Rx,0,5,40,41,92,0F,18,00,00,00,
58328864,000004F3,false,Rx,0,8,78,42,FE,01,FF,FF,FF,FF,
58338606,00000130,false,Rx,0,5,40,41,92,0F,29,00,00,00,
58426762,000004F8,false,Rx,0,8,00,52,FE,01,FF,FF,FF,FF,
58438627,00000130,false,Rx,0,5,40,41,92,0F,3A,00,00,00,
58511790,00000480,false,Rx,0,8,40,52,FE,01,FF,FF,FF,FF,
58538555,00000130,false,Rx,0,5,40,41,92,0F,4B,00,00,00,
58593700,000004C0,false,Rx,0,8,41,42,FF,01,30,20,EC,02,
58638585,00000130,false,Rx,0,5,40,41,92,0F,6C,00,00,00,
58684586,000004C1,false,Rx,0,8,56,52,FE,01,FF,FF,FF,FF,
58738612,00000130,false,Rx,0,5,40,41,92,0F,7D,00,00,00,
58788133,000004D6,false,Rx,0,8,60,52,FF,01,FF,FF,FF,FF,
58838609,00000130,false,Rx,0,5,40,41,92,0F,8E,00,00,00,
58884117,000004E0,false,Rx,0,8,61,52,FF,01,FF,FF,FF,FF,
58939819,00000130,false,Rx,0,5,40,41,92,0F,90,00,00,00,
58980048,000004E1,false,Rx,0,8,62,52,FE,01,FF,FF,FF,FF,
59038550,00000130,false,Rx,0,5,40,41,92,0F,A1,00,00,00,
59066059,000004E2,false,Rx,0,8,67,42,FE,01,FF,FF,FF,FF,
59138435,00000130,false,Rx,0,5,40,41,92,0F,B2,00,00,00,
59160234,000004E7,false,Rx,0,8,6D,52,FE,01,FF,FF,FF,FF,
59238482,00000130,false,Rx,0,5,40,41,92,0F,C3,00,00,00,
59245984,000004ED,false,Rx,0,8,72,52,FE,01,FF,FF,FF,FF,
59338463,00000130,false,Rx,0,5,40,41,92,0F,D4,00,00,00,
59345158,000004F2,false,Rx,0,8,73,52,FE,01,00,40,00,00,
59438411,00000130,false,Rx,0,5,40,41,92,0F,E5,00,00,00,
59445729,000004F3,false,Rx,0,8,78,42,FE,01,FF,FF,FF,FF,
59538728,00000130,false,Rx,0,5,40,41,92,0F,F6,00,00,00,
59541793,000004F8,false,Rx,0,8,00,52,FE,01,FF,FF,FF,FF,
59631767,00000480,false,Rx,0,8,40,52,FE,01,FF,FF,FF,FF,
59638316,00000130,false,Rx,0,5,40,41,92,0F,07,00,00,00,
59715051,000004C0,false,Rx,0,8,41,42,FF,01,30,20,EC,02,
59738266,00000130,false,Rx,0,5,40,41,92,0F,18,00,00,00,
59802156,000004C1,false,Rx,0,8,56,52,FE,01,FF,FF,FF,FF,
59838344,00000130,false,Rx,0,5,40,41,92,0F,29,00,00,00,
59893833,000004D6,false,Rx,0,8,60,52,FF,01,FF,FF,FF,FF,
59938326,00000130,false,Rx,0,5,40,41,92,0F,3A,00,00,00,
59983495,000004E0,false,Rx,0,8,61,52,FF,01,FF,FF,FF,FF,
60038309,00000130,false,Rx,0,5,40,41,92,0F,4B,00,00,00,
60079097,000004E1,false,Rx,0,8,62,52,FE,01,FF,FF,FF,FF,
60138212,00000130,false,Rx,0,5,40,41,92,0F,6C,00,00,00,
60165830,000004E2,false,Rx,0,8,67,42,FE,01,FF,FF,FF,FF,
60238184,00000130,false,Rx,0,5,40,41,92,0F,7D,00,00,00,
60247640,000004E7,false,Rx,0,8,6D,52,FE,01,FF,FF,FF,FF,
60338074,00000130,false,Rx,0,5,40,41,92,0F,8E,00,00,00,
60345732,000004ED,false,Rx,0,8,72,52,FE,01,FF,FF,FF,FF,
60438217,00000130,false,Rx,0,5,40,41,92,0F,90,00,00,00,
60444885,000004F2,false,Rx,0,8,73,52,FE,01,00,40,00,00,
60538057,00000130,false,Rx,0,5,40,41,92,0F,A1,00,00,00,
60546013,000004F3,false,Rx,0,8,78,42,FE,01,FF,FF,FF,FF,
60638044,00000130,false,Rx,0,5,40,41,92,0F,B2,00,00,00,
60641121,000004F8,false,Rx,0,8,00,52,FE,01,FF,FF,FF,FF,
60731834,00000480,false,Rx,0,8,40,52,FE,01,FF,FF,FF,FF,
60737984,00000130,false,Rx,0,5,40,41,92,0F,C3,00,00,00,
60814061,000004C0,false,Rx,0,8,41,42,FF,01,30,20,EC,02,
60838000,00000130,false,Rx,0,5,40,41,92,0F,D4,00,00,00,
60900691,000004C1,false,Rx,0,8,56,52,FE,01,FF,FF,FF,FF,
60939315,00000130,false,Rx,0,5,40,41,92,0F,E5,00,00,00,
60957385,000003BD,false,Rx,0,2,FD,FF,00,00,00,00,00,00,
