Time Stamp,ID,Extended,Dir,Bus,LEN,D1,D2,D3,D4,D5,D6,D7,D8
9301428,000004F2,false,Rx,0,8,72,01,FD,FF,FF,FF,FF,FF,
9308139,000004E0,false,Rx,0,8,60,01,FF,FF,FF,FF,FF,FF,
9309397,000004C0,false,Rx,0,8,40,01,FF,FF,FF,FF,FF,FF,
9311035,00000130,false,Rx,0,5,00,01,C0,0F,64,00,00,00,
9312011,00000130,false,Rx,0,5,00,01,C0,0F,75,00,00,00,
9313802,000003BD,false,Rx,0,2,FC,FF,00,00,00,00,00,00,
9325831,000003BE,false,Rx,0,2,00,F0,00,00,00,00,00,00,
9333911,000004D6,false,Rx,0,8,56,01,FF,FF,FF,FF,FF,FF,
9350311,000004E1,false,Rx,0,8,61,01,FE,FF,FF,FF,FF,FF,
9361225,00000130,false,Rx,0,5,00,01,C0,0F,86,00,00,00,
9377710,00000480,false,Rx,0,8,00,01,FE,FF,FF,FF,FF,FF,
9380915,000004C1,false,Rx,0,8,41,01,FE,FF,FF,FF,FF,FF,
9401343,000004F2,false,Rx,0,8,00,02,FD,FF,FF,FF,FF,FF,
9411362,00000130,false,Rx,0,5,00,01,C0,0F,97,00,00,00,
9446639,00000130,false,Rx,0,5,40,41,C2,0F,48,00,00,00,
9497708,00000480,false,Rx,0,8,41,02,FE,FF,FF,FF,FF,FF,
9506501,000004C0,false,Rx,0,8,41,01,FF,FF,FF,FF,FF,FF,
9512263,00000130,false,Rx,0,5,40,41,C2,0F,59,00,00,00,
9514801,000003BD,false,Rx,0,2,FD,FF,00,00,00,00,00,00,
9526161,00000130,false,Rx,0,5,40,41,82,0F,2A,00,00,00,
9527440,000003BE,false,Rx,0,2,B3,F0,00,00,00,00,00,00,
9545771,000004E7,false,Rx,0,8,67,01,FE,FF,FF,FF,FF,FF,
9562336,000004F3,false,Rx,0,8,73,01,FE,FF,FF,FF,FF,FF,
9591358,000004C1,false,Rx,0,8,67,02,FE,FF,FF,FF,FF,FF,
9595670,000004ED,false,Rx,0,8,6D,01,FF,FF,FF,FF,FF,FF,
9600198,000004D6,false,Rx,0,8,61,01,FF,FF,FF,FF,FF,FF,
9607592,000004E0,false,Rx,0,8,61,01,FF,FF,FF,FF,FF,FF,
9610271,000004E1,false,Rx,0,8,67,11,FE,FF,FF,FF,FF,FF,
9611273,00000130,false,Rx,0,5,40,41,82,0F,3B,00,00,00,
9629986,000004E2,false,Rx,0,8,62,01,FE,FF,FF,FF,FF,FF,
9681148,000003BD,false,Rx,0,2,FD,FF,00,00,00,00,00,00,
9685151,000004E7,false,Rx,0,8,6D,12,FE,FF,FF,FF,FF,FF,
9713053,00000130,false,Rx,0,5,40,41,82,0F,5C,00,00,00,
9714457,000004F8,false,Rx,0,8,78,01,FE,FF,FF,FF,FF,FF,
9723901,000004F8,false,Rx,0,8,78,02,FE,FF,FF,FF,FF,FF,
9729174,000003BE,false,Rx,0,2,B3,F0,00,00,00,00,00,00,
9806009,000004E7,false,Rx,0,8,6D,12,FE,FF,FF,FF,FF,FF,
9807217,000004C0,false,Rx,0,8,41,02,FF,FF,FF,FF,FF,FF,
9811564,00000130,false,Rx,0,5,40,41,82,0F,6D,00,00,00,
9833715,000003BD,false,Rx,0,2,FD,FF,00,00,00,00,00,00,
9891065,000004C1,false,Rx,0,8,56,12,FE,FF,FF,FF,FF,FF,
9911274,00000130,false,Rx,0,5,40,41,82,0F,7E,00,00,00,
9926066,000003BE,false,Rx,0,2,B3,F0,00,00,00,00,00,00,
9989384,000004D6,false,Rx,0,8,60,02,FE,FF,FF,FF,FF,FF,
10011286,00000130,false,Rx,0,5,40,41,82,0F,80,00,00,00,
10089184,000004E0,false,Rx,0,8,61,02,FF,FF,FF,FF,FF,FF,
10111410,00000130,false,Rx,0,5,40,41,82,0F,91,00,00,00,
10190219,000004E1,false,Rx,0,8,62,12,FE,FF,FF,FF,FF,FF,
10211306,00000130,false,Rx,0,5,40,41,82,0F,A2,00,00,00,
10288761,000004E2,false,Rx,0,8,67,12,FE,FF,FF,FF,FF,FF,
10311354,00000130,false,Rx,0,5,40,41,82,0F,B3,00,00,00,
10390607,000004E7,false,Rx,0,8,6D,52,FE,FF,FF,FF,FF,FF,
10411301,00000130,false,Rx,0,5,40,41,82,0F,C4,00,00,00,
10446188,00000130,false,Rx,0,5,40,41,92,0F,E5,00,00,00,
10477349,000004ED,false,Rx,0,8,78,12,FE,FF,FF,FF,FF,FF,
10481394,000004F2,false,Rx,0,8,73,01,FD,FF,FF,FF,FF,FF,
10482702,000004F3,false,Rx,0,8,78,11,FE,FF,FF,FF,FF,FF,
10511382,00000130,false,Rx,0,5,40,41,92,0F,F6,00,00,00,
10546279,00000130,false,Rx,0,5,40,41,92,1F,17,00,00,00,
10573276,000004F8,false,Rx,0,8,40,12,FE,FF,FF,FF,FF,FF,
10578042,00000480,false,Rx,0,8,40,01,FE,FF,FF,FF,FF,FF,
10601252,00000130,false,Rx,0,5,40,41,9A,2F,C8,00,00,00,
10611280,00000130,false,Rx,0,5,40,41,9A,2F,D9,00,00,00,
10666451,000004C0,false,Rx,0,8,41,02,FF,FF,FF,FF,FF,FF,
10667425,00000130,false,Rx,0,5,40,41,92,1F,4A,00,00,00,
10711266,00000130,false,Rx,0,5,40,41,92,1F,5B,00,00,00,
10750101,000004C1,false,Rx,0,8,56,12,FE,FF,FF,FF,FF,FF,
10811301,00000130,false,Rx,0,5,40,41,92,1F,7C,00,00,00,
10850065,000004D6,false,Rx,0,8,60,02,FE,FF,FF,FF,FF,FF,
10911279,00000130,false,Rx,0,5,40,41,92,1F,8D,00,00,00,
10948184,000004E0,false,Rx,0,8,61,12,FF,FF,FF,FF,FF,FF,
11011294,00000130,false,Rx,0,5,40,41,92,1F,9E,00,00,00,
11030393,000004E1,false,Rx,0,8,62,12,FE,FF,FF,FF,FF,FF,
11111365,00000130,false,Rx,0,5,40,41,92,1F,A0,00,00,00,
11128865,000004E2,false,Rx,0,8,67,12,FE,FF,FF,FF,FF,FF,
11211338,00000130,false,Rx,0,5,40,41,92,1F,B1,00,00,00,
11216920,000004E7,false,Rx,0,8,6D,12,FE,FF,FF,FF,FF,FF,
11312619,00000130,false,Rx,0,5,40,41,92,1F,C2,00,00,00,
11315718,000004ED,false,Rx,0,8,72,12,FE,FF,FF,FF,FF,FF,
11401446,000004F2,false,Rx,0,8,73,12,FD,FF,00,40,01,00,
11411394,00000130,false,Rx,0,5,40,41,92,1F,D3,00,00,00,
11482852,000004F3,false,Rx,0,8,78,12,FE,FF,FF,FF,FF,FF,
11511789,00000130,false,Rx,0,5,40,41,92,1F,E4,00,00,00,
11573249,000004F8,false,Rx,0,8,00,12,FE,FF,FF,FF,FF,FF,
11611475,00000130,false,Rx,0,5,40,41,92,1F,F5,00,00,00,
11658819,00000480,false,Rx,0,8,40,02,FE,FF,FF,FF,FF,FF,
11711323,00000130,false,Rx,0,5,40,41,92,1F,06,00,00,00,
11747171,000004C0,false,Rx,0,8,41,42,FF,FF,FF,FF,FF,FF,
11812441,00000130,false,Rx,0,5,40,41,92,1F,17,00,00,00,
11828806,000004C1,false,Rx,0,8,56,52,FE,FF,FF,FF,FF,FF,
11911360,00000130,false,Rx,0,5,40,41,92,1F,28,00,00,00,
11915447,000004D6,false,Rx,0,8,60,52,FE,FF,FF,FF,FF,FF,
12007270,000004E0,false,Rx,0,8,61,52,FF,FF,FF,FF,FF,FF,
12011345,00000130,false,Rx,0,5,40,41,92,1F,39,00,00,00,
12090215,000004E1,false,Rx,0,8,62,52,FE,FF,FF,FF,FF,FF,
12111401,00000130,false,Rx,0,5,40,41,92,1F,4A,00,00,00,
12189144,000004E2,false,Rx,0,8,67,42,FE,FF,FF,FF,FF,FF,
12211464,00000130,false,Rx,0,5,40,41,92,1F,5B,00,00,00,
12285027,000004E7,false,Rx,0,8,6D,52,FE,FF,FF,FF,FF,FF,
12311567,00000130,false,Rx,0,5,40,41,92,1F,7C,00,00,00,
12376849,000004ED,false,Rx,0,8,72,52,FE,FF,FF,FF,FF,FF,
12411385,00000130,false,Rx,0,5,40,41,92,1F,8D,00,00,00,
12461560,000004F2,false,Rx,0,8,73,52,FD,FF,00,40,01,00,
12511456,00000130,false,Rx,0,5,40,41,92,1F,9E,00,00,00,
12543096,000004F3,false,Rx,0,8,78,52,FE,FF,FF,FF,FF,FF,
12611422,00000130,false,Rx,0,5,40,41,92,1F,A0,00,00,00,
12633010,000004F8,false,Rx,0,8,00,52,FE,FF,FF,FF,FF,FF,
12711378,00000130,false,Rx,0,5,40,41,92,1F,B1,00,00,00,
12718685,00000480,false,Rx,0,8,40,42,FE,FF,FF,FF,FF,FF,
12806669,000004C0,false,Rx,0,8,41,42,FF,01,30,01,EC,03,
12811486,00000130,false,Rx,0,5,40,41,92,1F,C2,00,00,00,
12888024,000004C1,false,Rx,0,8,56,52,FE,01,FF,FF,FF,FF,
12911493,00000130,false,Rx,0,5,40,41,92,1F,D3,00,00,00,
12979953,000004D6,false,Rx,0,8,60,52,FF,01,FF,FF,FF,FF,
13011504,00000130,false,Rx,0,5,40,41,92,1F,E4,00,00,00,
13067652,000004E0,false,Rx,0,8,61,52,FF,01,FF,FF,FF,FF,
13106339,00000130,false,Rx,0,5,40,41,92,0F,E5,00,00,00,
13111466,00000130,false,Rx,0,5,40,41,92,0F,F6,00,00,00,
13151338,000004E1,false,Rx,0,8,62,52,FE,01,FF,FF,FF,FF,
13211490,00000130,false,Rx,0,5,40,41,92,0F,07,00,00,00,
13226395,00000130,false,Rx,0,5,40,41,92,1F,28,00,00,00,
13250355,000004E2,false,Rx,0,8,67,42,FE,01,FF,FF,FF,FF,
13281527,00000130,false,Rx,0,5,40,41,9A,2F,D9,00,00,00,
13312752,00000130,false,Rx,0,5,40,41,9A,2F,EA,00,00,00,
13332856,000004E7,false,Rx,0,8,6D,52,FE,01,FF,FF,FF,FF,
13406406,00000130,false,Rx,0,5,40,41,92,1F,5B,00,00,00,
13411549,00000130,false,Rx,0,5,40,41,92,1F,7C,00,00,00,
13415902,000004ED,false,Rx,0,8,72,52,FE,01,FF,FF,FF,FF,
13501647,000004F2,false,Rx,0,8,73,52,FD,01,00,40,01,00,
13511617,00000130,false,Rx,0,5,40,41,92,1F,8D,00,00,00,
13583258,000004F3,false,Rx,0,8,78,52,FE,01,FF,FF,FF,FF,
13611453,00000130,false,Rx,0,5,40,41,92,1F,9E,00,00,00,
13673771,000004F8,false,Rx,0,8,00,52,FE,01,FF,FF,FF,FF,
13711493,00000130,false,Rx,0,5,40,41,92,1F,A0,00,00,00,
13759005,00000480,false,Rx,0,8,40,42,FE,01,FF,FF,FF,FF,
13811477,00000130,false,Rx,0,5,40,41,92,1F,B1,00,00,00,
13846584,000004C0,false,Rx,0,8,41,42,FF,01,30,01,EC,03,
13911460,00000130,false,Rx,0,5,40,41,92,1F,C2,00,00,00,
13946590,000004C1,false,Rx,0,8,56,52,FE,01,FF,FF,FF,FF,
14011468,00000130,false,Rx,0,5,40,41,92,1F,D3,00,00,00,
14044968,000004D6,false,Rx,0,8,60,52,FF,01,FF,FF,FF,FF,
14111459,00000130,false,Rx,0,5,40,41,92,1F,E4,00,00,00,
14127888,000004E0,false,Rx,0,8,61,52,FF,01,FF,FF,FF,FF,
14210005,000004E1,false,Rx,0,8,62,52,FE,01,FF,FF,FF,FF,
14211478,00000130,false,Rx,0,5,40,41,92,1F,F5,00,00,00,
14309340,000004E2,false,Rx,0,8,67,42,FE,01,FF,FF,FF,FF,
14311585,00000130,false,Rx,0,5,40,41,92,1F,06,00,00,00,
14400597,000004E7,false,Rx,0,8,6D,52,FE,01,FF,FF,FF,FF,
14411596,00000130,false,Rx,0,5,40,41,92,1F,17,00,00,00,
14495949,000004ED,false,Rx,0,8,72,52,FE,01,FF,FF,FF,FF,
14511505,00000130,false,Rx,0,5,40,41,92,1F,28,00,00,00,
14582743,000004F2,false,Rx,0,8,73,52,FD,01,00,40,01,00,
14611513,00000130,false,Rx,0,5,40,41,92,1F,39,00,00,00,
14683388,000004F3,false,Rx,0,8,78,52,FE,01,FF,FF,FF,FF,
14711495,00000130,false,Rx,0,5,40,41,92,1F,4A,00,00,00,
14766397,00000130,false,Rx,0,5,40,41,92,3F,7B,00,00,00,
14773316,000004F8,false,Rx,0,8,00,52,FE,01,FF,FF,FF,FF,
14811504,00000130,false,Rx,0,5,40,41,92,3F,9C,00,00,00,
14833969,000003BD,false,Rx,0,2,FD,FF,00,00,00,00,00,00,
14859412,00000480,false,Rx,0,8,40,42,FE,01,FF,FF,FF,FF,
14906464,00000130,false,Rx,0,5,40,41,92,1F,8D,00,00,00,
14911547,00000130,false,Rx,0,5,40,41,92,1F,9E,00,00,00,
14946991,000004C0,false,Rx,0,8,41,42,FF,01,30,01,EC,03,
14966687,00000130,false,Rx,0,5,41,41,91,1F,A0,00,00,00,
15011521,00000130,false,Rx,0,5,41,41,91,1F,B1,00,00,00,
15026180,000003BE,false,Rx,0,2,FE,FF,00,00,00,00,00,00,
15045660,000004C1,false,Rx,0,8,56,42,FE,01,FF,FF,FF,FF,
15046910,00000481,false,Rx,0,8,01,01,FF,FF,FF,FF,FF,FF,
15111559,00000130,false,Rx,0,5,41,41,91,1F,C2,00,00,00,
15130582,000004D6,false,Rx,0,8,60,02,FE,01,FF,FF,FF,FF,
15211985,00000130,false,Rx,0,5,41,41,91,1F,D3,00,00,00,
15228094,000004E0,false,Rx,0,8,61,02,FF,FF,FF,FF,FF,FF,
15228772,000003BE,false,Rx,0,2,FE,FF,00,00,00,00,00,00,
15313482,000004E1,false,Rx,0,8,62,02,FE,FF,FF,FF,FF,FF,
15316604,00000130,false,Rx,0,5,41,41,91,1F,E4,00,00,00,
15409528,000004E2,false,Rx,0,8,67,02,FE,FF,FF,FF,FF,FF,
15411683,00000130,false,Rx,0,5,41,41,91,1F,F5,00,00,00,
15426217,000003BE,false,Rx,0,2,FE,FF,00,00,00,00,00,00,
15508490,000004E7,false,Rx,0,8,6D,12,FE,FF,FF,FF,FF,FF,
15511566,00000130,false,Rx,0,5,41,41,91,1F,06,00,00,00,
15596128,000004ED,false,Rx,0,8,72,02,FE,FF,FF,FF,FF,FF,
15611578,00000130,false,Rx,0,5,41,41,91,1F,17,00,00,00,
15626450,00000130,false,Rx,0,5,41,41,A1,1F,38,00,00,00,
15681914,000004F2,false,Rx,0,8,73,02,FD,FF,00,40,01,00,
15711580,00000130,false,Rx,0,5,41,41,A1,1F,49,00,00,00,
15763638,000004F3,false,Rx,0,8,78,02,FE,FF,FF,FF,FF,FF,
15811565,00000130,false,Rx,0,5,41,41,A1,1F,5A,00,00,00,
15852487,000004F8,false,Rx,0,8,00,02,FE,FF,FF,FF,FF,FF,
15911623,00000130,false,Rx,0,5,41,41,A1,1F,6B,00,00,00,
15939811,00000480,false,Rx,0,8,01,02,FE,FF,FF,FF,FF,FF,
16011579,00000130,false,Rx,0,5,41,41,A1,1F,8C,00,00,00,
16026072,00000481,false,Rx,0,8,41,02,FF,FF,FF,FF,FF,FF,
16046764,000004C0,false,Rx,0,8,41,01,FF,01,30,01,EC,03,
16111591,00000130,false,Rx,0,5,41,41,A1,1F,9D,00,00,00,
16124578,000004C1,false,Rx,0,8,56,12,FE,FF,FF,FF,FF,FF,
16211598,00000130,false,Rx,0,5,41,41,A1,1F,AE,00,00,00,
16216188,000004D6,false,Rx,0,8,60,02,FE,FF,FF,FF,FF,FF,
16307716,000004E0,false,Rx,0,8,61,02,FF,FF,FF,FF,FF,FF,
16311610,00000130,false,Rx,0,5,41,41,A1,1F,B0,00,00,00,
16389893,000004E1,false,Rx,0,8,62,02,FE,FF,FF,FF,FF,FF,
16411712,00000130,false,Rx,0,5,41,41,A1,1F,C1,00,00,00,
16489672,000004E2,false,Rx,0,8,67,02,FE,FF,FF,FF,FF,FF,
16511628,00000130,false,Rx,0,5,41,41,A1,1F,D2,00,00,00,
16579419,000004E7,false,Rx,0,8,6D,12,FE,FF,FF,FF,FF,FF,
16611604,00000130,false,Rx,0,5,41,41,A1,1F,E3,00,00,00,
16680531,000004ED,false,Rx,0,8,72,12,FE,FF,FF,FF,FF,FF,
16711611,00000130,false,Rx,0,5,41,41,A1,1F,F4,00,00,00,
16761938,000004F2,false,Rx,0,8,73,12,FD,FF,00,40,01,00,
16812855,00000130,false,Rx,0,5,41,41,A1,1F,05,00,00,00,
16843931,000004F3,false,Rx,0,8,78,02,FE,FF,FF,FF,FF,FF,
16911611,00000130,false,Rx,0,5,41,41,A1,1F,16,00,00,00,
16932319,000004F8,false,Rx,0,8,00,02,FE,FF,FF,FF,FF,FF,
17012146,00000130,false,Rx,0,5,41,41,A1,1F,27,00,00,00,
17020202,00000480,false,Rx,0,8,01,02,FE,FF,FF,FF,FF,FF,
17106492,00000481,false,Rx,0,8,40,02,FF,FF,FF,FF,FF,FF,
17111672,00000130,false,Rx,0,5,41,41,A1,1F,38,00,00,00,
17207739,000004C0,false,Rx,0,8,41,02,FF,FF,FF,FF,FF,FF,
17211628,00000130,false,Rx,0,5,41,41,A1,1F,49,00,00,00,
17304321,000004C1,false,Rx,0,8,56,52,FE,FF,FF,FF,FF,FF,
17313529,00000130,false,Rx,0,5,41,41,A1,1F,5A,00,00,00,
17347011,00000130,false,Rx,0,5,41,41,A1,0F,5B,00,00,00,
17404226,000004D6,false,Rx,0,8,60,42,FE,FF,FF,FF,FF,FF,
17411672,00000130,false,Rx,0,5,41,41,A1,0F,7C,00,00,00,
17488814,000004E0,false,Rx,0,8,61,42,FF,FF,FF,FF,FF,FF,
17511654,00000130,false,Rx,0,5,41,41,A1,0F,8D,00,00,00,
17589737,000004E1,false,Rx,0,8,62,42,FE,FF,FF,FF,FF,FF,
17611689,00000130,false,Rx,0,5,41,41,A1,0F,9E,00,00,00,
17690490,000004E2,false,Rx,0,8,67,42,FE,FF,FF,FF,FF,FF,
17711673,00000130,false,Rx,0,5,41,41,A1,0F,A0,00,00,00,
17784784,000004E7,false,Rx,0,8,6D,52,FE,FF,FF,FF,FF,FF,
17811678,00000130,false,Rx,0,5,41,41,A1,0F,B1,00,00,00,
17879823,000004ED,false,Rx,0,8,72,52,FE,FF,FF,FF,FF,FF,
17911686,00000130,false,Rx,0,5,41,41,A1,0F,C2,00,00,00,
17961899,000004F2,false,Rx,0,8,73,52,FD,FF,00,40,01,00,
18011669,00000130,false,Rx,0,5,41,41,A1,0F,D3,00,00,00,
18044045,000004F3,false,Rx,0,8,78,42,FE,FF,FF,FF,FF,FF,
18111701,00000130,false,Rx,0,5,41,41,A1,0F,E4,00,00,00,
18132096,000004F8,false,Rx,0,8,00,42,FE,FF,FF,FF,FF,FF,
18211694,00000130,false,Rx,0,5,41,41,A1,0F,F5,00,00,00,
18220606,00000480,false,Rx,0,8,01,42,FE,FF,FF,FF,FF,FF,
18306981,00000481,false,Rx,0,8,40,42,FF,FF,FF,FF,FF,FF,
18311696,00000130,false,Rx,0,5,41,41,A1,0F,06,00,00,00,
18407022,000004C0,false,Rx,0,8,41,42,FF,FF,FF,FF,FF,FF,
18411854,00000130,false,Rx,0,5,41,41,A1,0F,17,00,00,00,
18502923,000004C1,false,Rx,0,8,56,52,FE,01,FF,FF,FF,FF,
18511713,00000130,false,Rx,0,5,41,41,A1,0F,28,00,00,00,
18592205,000004D6,false,Rx,0,8,60,42,FF,01,FF,FF,FF,FF,
18611702,00000130,false,Rx,0,5,41,41,A1,0F,39,00,00,00,
18689169,000004E0,false,Rx,0,8,61,42,FF,01,FF,FF,FF,FF,
18711732,00000130,false,Rx,0,5,41,41,A1,0F,4A,00,00,00,
18790461,000004E1,false,Rx,0,8,62,42,FE,01,FF,FF,FF,FF,
18811835,00000130,false,Rx,0,5,41,41,A1,0F,5B,00,00,00,
18890076,000004E2,false,Rx,0,8,67,42,FE,01,FF,FF,FF,FF,
18911830,00000130,false,Rx,0,5,41,41,A1,0F,7C,00,00,00,
18974808,000004E7,false,Rx,0,8,6D,52,FE,01,FF,FF,FF,FF,
19011727,00000130,false,Rx,0,5,41,41,A1,0F,8D,00,00,00,
19056608,000004ED,false,Rx,0,8,72,52,FE,01,FF,FF,FF,FF,
19111762,00000130,false,Rx,0,5,41,41,A1,0F,9E,00,00,00,
19142000,000004F2,false,Rx,0,8,73,52,FD,01,00,40,01,00,
19211770,00000130,false,Rx,0,5,41,41,A1,0F,A0,00,00,00,
19224293,000004F3,false,Rx,0,8,78,42,FE,01,FF,FF,FF,FF,
19311936,000004F8,false,Rx,0,8,00,42,FE,01,FF,FF,FF,FF,
19314075,00000130,false,Rx,0,5,41,41,A1,0F,B1,00,00,00,
19400999,00000480,false,Rx,0,8,01,42,FE,01,FF,FF,FF,FF,
19412977,00000130,false,Rx,0,5,41,41,A1,0F,C2,00,00,00,
19486745,00000481,false,Rx,0,8,40,42,FF,01,FF,FF,FF,FF,
19511775,00000130,false,Rx,0,5,41,41,A1,0F,D3,00,00,00,
19586912,000004C0,false,Rx,0,8,41,42,FF,01,30,01,EC,03,
19611812,00000130,false,Rx,0,5,41,41,A1,0F,E4,00,00,00,
19681731,000004C1,false,Rx,0,8,56,52,FE,01,FF,FF,FF,FF,
19711815,00000130,false,Rx,0,5,41,41,A1,0F,F5,00,00,00,
19780191,000004D6,false,Rx,0,8,60,42,FF,01,FF,FF,FF,FF,
19811795,00000130,false,Rx,0,5,41,41,A1,0F,06,00,00,00,
19834780,000003BD,false,Rx,0,2,FD,FF,00,00,00,00,00,00,
19867698,000004E0,false,Rx,0,8,61,42,FF,01,FF,FF,FF,FF,
19911809,00000130,false,Rx,0,5,41,41,A1,0F,17,00,00,00,
19949553,000004E1,false,Rx,0,8,62,42,FE,01,FF,FF,FF,FF,
20011815,00000130,false,Rx,0,5,41,41,A1,0F,28,00,00,00,
20050210,000004E2,false,Rx,0,8,67,42,FE,01,FF,FF,FF,FF,
20111759,00000130,false,Rx,0,5,41,41,A1,0F,39,00,00,00,
20141695,000004E7,false,Rx,0,8,6D,52,FE,01,FF,FF,FF,FF,
20211810,00000130,false,Rx,0,5,41,41,A1,0F,4A,00,00,00,
20236680,000004ED,false,Rx,0,8,72,52,FE,01,FF,FF,FF,FF,
20312074,00000130,false,Rx,0,5,41,41,A1,0F,5B,00,00,00,
20322101,000004F2,false,Rx,0,8,73,52,FD,01,00,40,01,00,
20404586,000004F3,false,Rx,0,8,78,42,FE,01,FF,FF,FF,FF,
20411827,00000130,false,Rx,0,5,41,41,A1,0F,7C,00,00,00,
20491772,000004F8,false,Rx,0,8,00,42,FE,01,FF,FF,FF,FF,
20511806,00000130,false,Rx,0,5,41,41,A1,0F,8D,00,00,00,
20581340,00000480,false,Rx,0,8,01,42,FE,01,FF,FF,FF,FF,
20611798,00000130,false,Rx,0,5,41,41,A1,0F,9E,00,00,00,
20666805,00000481,false,Rx,0,8,40,42,FF,01,FF,FF,FF,FF,
20711854,00000130,false,Rx,0,5,41,41,A1,0F,A0,00,00,00,
20767089,000004C0,false,Rx,0,8,41,42,FF,01,30,01,EC,03,
20811859,00000130,false,Rx,0,5,41,41,A1,0F,B1,00,00,00,
20860214,000004C1,false,Rx,0,8,56,52,FE,01,FF,FF,FF,FF,
20911864,00000130,false,Rx,0,5,41,41,A1,0F,C2,00,00,00,
20947693,000004D6,false,Rx,0,8,60,42,FF,01,FF,FF,FF,FF,
21011971,00000130,false,Rx,0,5,41,41,A1,0F,D3,00,00,00,
21048067,000004E0,false,Rx,0,8,61,42,FF,01,FF,FF,FF,FF,
21111922,00000130,false,Rx,0,5,41,41,A1,0F,E4,00,00,00,
21129437,000004E1,false,Rx,0,8,62,42,FE,01,FF,FF,FF,FF,
21211992,00000130,false,Rx,0,5,41,41,A1,0F,F5,00,00,00,
21231253,000004E2,false,Rx,0,8,67,42,FE,01,FF,FF,FF,FF,
21313086,00000130,false,Rx,0,5,41,41,A1,0F,06,00,00,00,
21330210,000004E7,false,Rx,0,8,6D,52,FE,01,FF,FF,FF,FF,
21412007,00000130,false,Rx,0,5,41,41,A1,0F,17,00,00,00,
21416928,000004ED,false,Rx,0,8,72,52,FE,01,FF,FF,FF,FF,
21502324,000004F2,false,Rx,0,8,73,52,FD,01,00,40,01,00,
21511958,00000130,false,Rx,0,5,41,41,A1,0F,28,00,00,00,
21584840,000004F3,false,Rx,0,8,78,42,FE,01,FF,FF,FF,FF,
21611894,00000130,false,Rx,0,5,41,41,A1,0F,39,00,00,00,
21671652,000004F8,false,Rx,0,8,00,42,FE,01,FF,FF,FF,FF,
21711990,00000130,false,Rx,0,5,41,41,A1,0F,4A,00,00,00,
21761837,00000480,false,Rx,0,8,01,42,FE,01,FF,FF,FF,FF,
21813042,00000130,false,Rx,0,5,41,41,A1,0F,5B,00,00,00,
21847054,00000481,false,Rx,0,8,40,42,FF,01,FF,FF,FF,FF,
21911952,00000130,false,Rx,0,5,41,41,A1,0F,7C,00,00,00,
21947351,000004C0,false,Rx,0,8,41,42,FF,01,30,01,EC,03,
22012030,00000130,false,Rx,0,5,41,41,A1,0F,8D,00,00,00,
22038992,000004C1,false,Rx,0,8,56,52,FE,01,FF,FF,FF,FF,
22111914,00000130,false,Rx,0,5,41,41,A1,0F,9E,00,00,00,
22135674,000004D6,false,Rx,0,8,60,42,FF,01,FF,FF,FF,FF,
22211912,00000130,false,Rx,0,5,41,41,A1,0F,A0,00,00,00,
22227844,000004E0,false,Rx,0,8,61,42,FF,01,FF,FF,FF,FF,
22309402,000004E1,false,Rx,0,8,62,42,FE,01,FF,FF,FF,FF,
22311949,00000130,false,Rx,0,5,41,41,A1,0F,B1,00,00,00,
22410552,000004E2,false,Rx,0,8,67,42,FE,01,FF,FF,FF,FF,
22411928,00000130,false,Rx,0,5,41,41,A1,0F,C2,00,00,00,
22498554,000004E7,false,Rx,0,8,6D,52,FE,01,FF,FF,FF,FF,
22511943,00000130,false,Rx,0,5,41,41,A1,0F,D3,00,00,00,
22597032,000004ED,false,Rx,0,8,72,52,FE,01,FF,FF,FF,FF,
22611950,00000130,false,Rx,0,5,41,41,A1,0F,E4,00,00,00,
22682664,000004F2,false,Rx,0,8,73,52,FD,01,00,40,01,00,
22711985,00000130,false,Rx,0,5,41,41,A1,0F,F5,00,00,00,
22764985,000004F3,false,Rx,0,8,78,42,FE,01,FF,FF,FF,FF,
22811969,00000130,false,Rx,0,5,41,41,A1,0F,06,00,00,00,
22851391,000004F8,false,Rx,0,8,00,42,FE,01,FF,FF,FF,FF,
22911946,00000130,false,Rx,0,5,41,41,A1,0F,17,00,00,00,
22942193,00000480,false,Rx,0,8,01,42,FE,01,FF,FF,FF,FF,
23011961,00000130,false,Rx,0,5,41,41,A1,0F,28,00,00,00,
23027014,00000481,false,Rx,0,8,40,42,FF,01,FF,FF,FF,FF,
23111968,00000130,false,Rx,0,5,41,41,A1,0F,39,00,00,00,
23127649,000004C0,false,Rx,0,8,41,42,FF,01,30,01,EC,03,
23212008,00000130,false,Rx,0,5,41,41,A1,0F,4A,00,00,00,
23216928,000004C1,false,Rx,0,8,56,52,FE,01,FF,FF,FF,FF,
23303275,000004D6,false,Rx,0,8,60,42,FF,01,FF,FF,FF,FF,
23313191,00000130,false,Rx,0,5,41,41,A1,0F,5B,00,00,00,
23389568,000004E0,false,Rx,0,8,61,42,FF,01,FF,FF,FF,FF,
23411994,00000130,false,Rx,0,5,41,41,A1,0F,7C,00,00,00,
23489313,000004E1,false,Rx,0,8,62,42,FE,01,FF,FF,FF,FF,
23512003,00000130,false,Rx,0,5,41,41,A1,0F,8D,00,00,00,
23570729,000004E2,false,Rx,0,8,67,42,FE,01,FF,FF,FF,FF,
23612013,00000130,false,Rx,0,5,41,41,A1,0F,9E,00,00,00,
23666928,000004E7,false,Rx,0,8,6D,52,FE,01,FF,FF,FF,FF,
23712055,00000130,false,Rx,0,5,41,41,A1,0F,A0,00,00,00,
23757121,000004ED,false,Rx,0,8,72,52,FE,01,FF,FF,FF,FF,
23812007,00000130,false,Rx,0,5,41,41,A1,0F,B1,00,00,00,
23842425,000004F2,false,Rx,0,8,73,52,FD,01,00,40,01,00,
23912035,00000130,false,Rx,0,5,41,41,A1,0F,C2,00,00,00,
23925247,000004F3,false,Rx,0,8,78,42,FE,01,FF,FF,FF,FF,
24011207,000004F8,false,Rx,0,8,00,42,FE,01,FF,FF,FF,FF,
24012099,00000130,false,Rx,0,5,41,41,A1,0F,D3,00,00,00,
24102544,00000480,false,Rx,0,8,01,42,FE,01,FF,FF,FF,FF,
24112031,00000130,false,Rx,0,5,41,41,A1,0F,E4,00,00,00,
24187091,00000481,false,Rx,0,8,40,42,FF,01,FF,FF,FF,FF,
24212064,00000130,false,Rx,0,5,41,41,A1,0F,F5,00,00,00,
24287180,000004C0,false,Rx,0,8,41,42,FF,01,30,01,EC,03,
24312024,00000130,false,Rx,0,5,41,41,A1,0F,06,00,00,00,
24376519,000004C1,false,Rx,0,8,56,52,FE,01,FF,FF,FF,FF,
24412051,00000130,false,Rx,0,5,41,41,A1,0F,17,00,00,00,
24470763,000004D6,false,Rx,0,8,60,42,FF,01,FF,FF,FF,FF,
24512003,00000130,false,Rx,0,5,41,41,A1,0F,28,00,00,00,
24568320,000004E0,false,Rx,0,8,61,42,FF,01,FF,FF,FF,FF,
24612021,00000130,false,Rx,0,5,41,41,A1,0F,39,00,00,00,
24669233,000004E1,false,Rx,0,8,62,42,FE,01,FF,FF,FF,FF,
24712052,00000130,false,Rx,0,5,41,41,A1,0F,4A,00,00,00,
24750897,000004E2,false,Rx,0,8,67,42,FE,01,FF,FF,FF,FF,
24812040,00000130,false,Rx,0,5,41,41,A1,0F,5B,00,00,00,
24835250,000004E7,false,Rx,0,8,6D,52,FE,01,FF,FF,FF,FF,
24835984,000003BD,false,Rx,0,2,FD,FF,00,00,00,00,00,00,
24912156,00000130,false,Rx,0,5,41,41,A1,0F,7C,00,00,00,
24917256,000004ED,false,Rx,0,8,72,52,FE,01,FF,FF,FF,FF,
25002520,000004F2,false,Rx,0,8,73,52,FD,01,00,40,01,00,
25012068,00000130,false,Rx,0,5,41,41,A1,0F,8D,00,00,00,
25026725,000003BE,false,Rx,0,2,FE,FF,00,00,00,00,00,00,
25085448,000004F3,false,Rx,0,8,78,42,FE,01,FF,FF,FF,FF,
25112084,00000130,false,Rx,0,5,41,41,A1,0F,9E,00,00,00,
25171024,000004F8,false,Rx,0,8,00,42,FE,01,FF,FF,FF,FF,
25212096,00000130,false,Rx,0,5,41,41,A1,0F,A0,00,00,00,
25262967,00000480,false,Rx,0,8,01,42,FE,01,FF,FF,FF,FF,
25313318,00000130,false,Rx,0,5,41,41,A1,0F,B1,00,00,00,
25347210,00000481,false,Rx,0,8,40,42,FF,01,FF,FF,FF,FF,
25412109,00000130,false,Rx,0,5,41,41,A1,0F,C2,00,00,00,
25447272,000004C0,false,Rx,0,8,41,42,FF,01,30,01,EC,02,
25512097,00000130,false,Rx,0,5,41,41,A1,0F,D3,00,00,00,
25534729,000004C1,false,Rx,0,8,56,52,FE,01,FF,FF,FF,FF,
25612389,00000130,false,Rx,0,5,41,41,A1,0F,E4,00,00,00,
25638287,000004D6,false,Rx,0,8,60,42,FF,01,FF,FF,FF,FF,
25712119,00000130,false,Rx,0,5,41,41,A1,0F,F5,00,00,00,
25728581,000004E0,false,Rx,0,8,61,42,FF,01,FF,FF,FF,FF,
25812114,00000130,false,Rx,0,5,41,41,A1,0F,06,00,00,00,
25831219,000004E1,false,Rx,0,8,62,42,FE,01,FF,FF,FF,FF,
25912157,00000130,false,Rx,0,5,41,41,A1,0F,17,00,00,00,
25931050,000004E2,false,Rx,0,8,67,42,FE,01,FF,FF,FF,FF,
26012135,00000130,false,Rx,0,5,41,41,A1,0F,28,00,00,00,
26023810,000004E7,false,Rx,0,8,6D,52,FE,01,FF,FF,FF,FF,
26112150,00000130,false,Rx,0,5,41,41,A1,0F,39,00,00,00,
26117462,000004ED,false,Rx,0,8,72,52,FE,01,FF,FF,FF,FF,
26202646,000004F2,false,Rx,0,8,73,52,FD,01,00,40,01,00,
26212153,00000130,false,Rx,0,5,41,41,A1,0F,4A,00,00,00,
26285747,000004F3,false,Rx,0,8,78,42,FE,01,FF,FF,FF,FF,
26312139,00000130,false,Rx,0,5,41,41,A1,0F,5B,00,00,00,
26370803,000004F8,false,Rx,0,8,00,42,FE,01,FF,FF,FF,FF,
26412180,00000130,false,Rx,0,5,41,41,A1,0F,7C,00,00,00,
26463366,00000480,false,Rx,0,8,01,42,FE,01,FF,FF,FF,FF,
26512179,00000130,false,Rx,0,5,41,41,A1,0F,8D,00,00,00,
26547287,00000481,false,Rx,0,8,40,42,FF,01,FF,FF,FF,FF,
26612188,00000130,false,Rx,0,5,41,41,A1,0F,9E,00,00,00,
26647317,000004C0,false,Rx,0,8,41,42,FF,01,30,01,EC,02,
26712161,00000130,false,Rx,0,5,41,41,A1,0F,A0,00,00,00,
26733489,000004C1,false,Rx,0,8,56,52,FE,01,FF,FF,FF,FF,
26813314,00000130,false,Rx,0,5,41,41,A1,0F,B1,00,00,00,
26826365,000004D6,false,Rx,0,8,60,42,FF,01,FF,FF,FF,FF,
26908549,000004E0,false,Rx,0,8,61,42,FF,01,FF,FF,FF,FF,
26912210,00000130,false,Rx,0,5,41,41,A1,0F,C2,00,00,00,
27009057,000004E1,false,Rx,0,8,62,42,FE,01,FF,FF,FF,FF,
27012195,00000130,false,Rx,0,5,41,41,A1,0F,D3,00,00,00,
27091334,000004E2,false,Rx,0,8,67,42,FE,01,FF,FF,FF,FF,
27112221,00000130,false,Rx,0,5,41,41,A1,0F,E4,00,00,00,
27192208,000004E7,false,Rx,0,8,6D,52,FE,01,FF,FF,FF,FF,
27212211,00000130,false,Rx,0,5,41,41,A1,0F,F5,00,00,00,
27278295,000004ED,false,Rx,0,8,72,52,FE,01,FF,FF,FF,FF,
27313423,00000130,false,Rx,0,5,41,41,A1,0F,06,00,00,00,
27362679,000004F2,false,Rx,0,8,73,52,FD,01,00,40,01,00,
27412228,00000130,false,Rx,0,5,41,41,A1,0F,17,00,00,00,
27445910,000004F3,false,Rx,0,8,78,42,FE,01,FF,FF,FF,FF,
27512237,00000130,false,Rx,0,5,41,41,A1,0F,28,00,00,00,
27530633,000004F8,false,Rx,0,8,00,42,FE,01,FF,FF,FF,FF,
27612195,00000130,false,Rx,0,5,41,41,A1,0F,39,00,00,00,
27623796,00000480,false,Rx,0,8,01,42,FE,01,FF,FF,FF,FF,
27707067,00000481,false,Rx,0,8,40,42,FF,01,FF,FF,FF,FF,
27712252,00000130,false,Rx,0,5,41,41,A1,0F,4A,00,00,00,
27807392,000004C0,false,Rx,0,8,41,42,FF,01,30,01,EC,02,
27812231,00000130,false,Rx,0,5,41,41,A1,0F,5B,00,00,00,
