Time Stamp,ID,Extended,Dir,Bus,LEN,D1,D2,D3,D4,D5,D6,D7,D8
62411844,000002BF,false,Rx,0,3,00,00,00,00,00,00,00,00,
62447936,000001A6,false,Rx,0,8,00,00,00,00,00,00,A0,F9,
62449000,000001B9,false,Rx,0,2,00,FF,00,00,00,00,00,00,
62449752,00000281,false,Rx,0,2,25,F3,00,00,00,00,00,00,
62450796,000002C4,false,Rx,0,8,00,00,FF,64,64,64,00,F0,
62456084,000000E4,false,Rx,0,8,0C,FB,86,7F,22,FF,7F,8E,
62457168,00000199,false,Rx,0,6,DA,FB,CB,7E,20,B0,00,00,
62458152,0000019A,false,Rx,0,6,BB,FB,9C,7E,00,20,00,00,
62459136,0000019F,false,Rx,0,6,81,FB,01,80,00,20,00,00,
62460328,00000289,false,Rx,0,8,13,F4,E0,E0,E1,00,0C,00,
62461416,00000297,false,Rx,0,7,51,F4,FC,FC,FC,FC,FC,00,
62462452,000001A1,false,Rx,0,5,FC,C6,00,00,81,00,00,00,
62463476,000001C4,false,Rx,0,7,00,00,00,00,BD,F4,FF,00,
62464596,000001C5,false,Rx,0,7,00,00,00,00,BD,F4,FF,00,
62465616,000002BB,false,Rx,0,5,BD,F4,00,00,F2,00,00,00,
62493500,0000012F,false,Rx,0,8,D4,23,86,1C,F1,01,30,09,
62496076,000000A5,false,Rx,0,8,40,FA,9B,B7,79,00,00,F1,
62505672,00000130,false,Rx,0,5,00,F0,FC,FF,FF,00,00,00,
62512312,000002BF,false,Rx,0,3,00,00,00,00,00,00,00,00,
62531996,000002CA,false,Rx,0,2,66,70,00,00,00,00,00,00,
62547928,000001A6,false,Rx,0,8,00,00,00,00,00,00,30,FB,
62549200,00000281,false,Rx,0,2,25,F3,00,00,00,00,00,00,
62550392,00000173,false,Rx,0,8,4F,F5,00,0E,30,00,FE,D0,
62556056,000000E4,false,Rx,0,8,EA,F6,86,7F,22,FF,7F,8E,
62557144,00000199,false,Rx,0,6,56,F6,D2,7E,20,B0,00,00,
62558128,0000019A,false,Rx,0,6,5D,F6,98,7E,00,20,00,00,
62559112,0000019F,false,Rx,0,6,CF,F6,FA,7F,00,20,00,00,
62560276,00000289,false,Rx,0,8,A9,F6,E0,E0,E1,00,0C,00,
62561356,000002BB,false,Rx,0,5,9A,F6,00,00,F2,00,00,00,
62562272,0000018F,false,Rx,0,5,2D,81,F1,FF,FF,00,00,00,
62563200,000001A1,false,Rx,0,5,B3,CB,00,00,81,00,00,00,
62565140,000001C4,false,Rx,0,7,00,00,00,00,C7,F4,FF,00,
62566168,000001C5,false,Rx,0,7,00,00,00,00,C7,F4,FF,00,
62567196,00000302,false,Rx,0,7,FF,FF,2D,81,FF,FF,FF,00,
62593492,0000012F,false,Rx,0,8,5A,24,86,1C,F1,01,30,09,
62596048,000000A5,false,Rx,0,8,28,F0,9B,B7,79,00,00,F1,
62605552,000005E7,false,Rx,0,8,99,01,0A,07,06,00,00,00,
62606616,00000130,false,Rx,0,5,00,F0,FC,FF,FF,00,00,00,
62612656,000002BF,false,Rx,0,3,00,00,00,00,00,00,00,00,
62627888,00000510,false,Rx,0,8,00,00,00,00,FF,FF,00,10,
62647948,000001A6,false,Rx,0,8,00,00,00,00,00,00,C0,FC,
62649216,00000281,false,Rx,0,2,25,F3,00,00,00,00,00,00,
62656048,000000E4,false,Rx,0,8,64,F1,86,7F,22,FF,7F,8E,
62657136,00000199,false,Rx,0,6,79,F1,CB,7E,20,B0,00,00,
62658120,0000019A,false,Rx,0,6,A3,F1,96,7E,00,20,00,00,
62659100,0000019F,false,Rx,0,6,04,F1,0A,80,00,20,00,00,
62660260,00000289,false,Rx,0,8,A8,F8,E0,E0,E1,00,0C,00,
62661356,00000297,false,Rx,0,7,17,F5,FC,FC,FC,FC,FC,00,
62662388,000001A1,false,Rx,0,5,08,C1,00,00,81,00,00,00,
62663416,000001C4,false,Rx,0,7,00,00,00,00,D1,F4,FF,00,
62664540,000001C5,false,Rx,0,7,00,00,00,00,D1,F4,FF,00,
62665560,000002BB,false,Rx,0,5,6F,F8,00,00,F2,00,00,00,
62676060,00000328,false,Rx,0,6,3D,44,EF,11,0E,22,00,00,
62693488,0000012F,false,Rx,0,8,BD,25,86,1C,F2,01,30,09,
62696056,000000A5,false,Rx,0,8,1C,F5,9B,B7,79,00,00,F1,
62705712,00000130,false,Rx,0,5,00,F0,FC,FF,FF,00,00,00,
62713032,000002BF,false,Rx,0,3,00,00,00,00,00,00,00,00,
62747948,000001A6,false,Rx,0,8,00,00,00,00,00,00,50,FE,
62749252,00000281,false,Rx,0,2,25,F3,00,00,00,00,00,00,
62750464,00000173,false,Rx,0,8,13,FA,00,0E,30,00,FE,D0,
62756072,000000E4,false,Rx,0,8,0C,FB,86,7F,22,FF,7F,8E,
62757156,00000199,false,Rx,0,6,09,FB,CE,7E,20,B0,00,00,
62758136,0000019A,false,Rx,0,6,4F,FB,9B,7E,00,20,00,00,
62759116,0000019F,false,Rx,0,6,A7,FB,0A,80,00,20,00,00,
62761120,00000289,false,Rx,0,8,12,FA,E0,E0,E1,00,0C,00,
62762196,0000018F,false,Rx,0,5,2D,81,F1,FF,FF,00,00,00,
62763128,000001A1,false,Rx,0,5,FC,C6,00,00,81,00,00,00,
62765072,000001C4,false,Rx,0,7,00,00,00,00,DB,F4,FF,00,
62766100,000001C5,false,Rx,0,7,00,00,00,00,DB,F4,FF,00,
62767128,00000302,false,Rx,0,7,FF,FF,2D,81,FF,FF,FF,00,
62768160,000002BB,false,Rx,0,5,48,FA,00,00,F2,00,00,00,
62793524,0000012F,false,Rx,0,8,5A,26,86,1C,F2,01,30,09,
62796064,000000A5,false,Rx,0,8,40,FA,9B,B7,79,00,00,F1,
62805828,00000130,false,Rx,0,5,00,F0,FC,FF,FF,00,00,00,
62813472,000002BF,false,Rx,0,3,00,00,00,00,00,00,00,00,
62847932,000001A6,false,Rx,0,8,00,00,00,00,00,00,E0,FF,
62848992,00000281,false,Rx,0,2,25,F3,00,00,00,00,00,00,
62856044,000000E4,false,Rx,0,8,EA,F6,86,7F,22,FF,7F,8E,
62857128,00000199,false,Rx,0,6,CB,F6,D3,7E,20,B0,00,00,
62858112,0000019A,false,Rx,0,6,7A,F6,9A,7E,00,20,00,00,
62859096,0000019F,false,Rx,0,6,92,F6,0B,80,00,20,00,00,
62860252,00000289,false,Rx,0,8,C1,FC,E0,E0,E1,00,0C,00,
62861352,00000297,false,Rx,0,7,DD,F6,FC,FC,FC,FC,FC,00,
62862388,000001A1,false,Rx,0,5,B3,CB,00,00,81,00,00,00,
62863384,000001C4,false,Rx,0,7,00,00,00,00,E5,F4,FF,00,
62864504,000001C5,false,Rx,0,7,00,00,00,00,E5,F4,FF,00,
62865524,000002BB,false,Rx,0,5,21,FC,00,00,F2,00,00,00,
62893480,0000012F,false,Rx,0,8,BD,27,86,1C,F1,01,30,09,
62896036,000000A5,false,Rx,0,8,28,F0,9B,B7,79,00,00,F1,
62905652,00000130,false,Rx,0,5,00,F0,FC,FF,FF,00,00,00,
62913836,000002BF,false,Rx,0,3,00,00,00,00,00,00,00,00,
62947928,000001A6,false,Rx,0,8,00,00,00,00,00,00,70,F1,
62949196,00000281,false,Rx,0,2,25,F3,00,00,00,00,00,00,
62950392,00000173,false,Rx,0,8,7B,F0,00,0E,30,00,FE,D0,
62951604,000002C4,false,Rx,0,8,00,00,FF,64,64,64,00,F0,
62956040,000000E4,false,Rx,0,8,64,F1,86,7F,22,FF,7F,8E,
62957124,00000199,false,Rx,0,6,37,F1,CF,7E,20,B0,00,00,
62958108,0000019A,false,Rx,0,6,CB,F1,99,7E,00,20,00,00,
62959092,0000019F,false,Rx,0,6,E3,F1,F8,7F,00,20,00,00,
62960252,00000289,false,Rx,0,8,7B,FE,E0,E0,E1,00,0C,00,
62961332,000002BB,false,Rx,0,5,06,FE,00,00,F2,00,00,00,
62962248,0000018F,false,Rx,0,5,2D,81,F1,FF,FF,00,00,00,
62963180,000001A1,false,Rx,0,5,08,C1,00,00,81,00,00,00,
62965116,000001C4,false,Rx,0,7,00,00,00,00,EF,F4,FF,00,
62966144,000001C5,false,Rx,0,7,00,00,00,00,EF,F4,FF,00,
62967172,00000302,false,Rx,0,7,FF,FF,2D,81,FF,FF,FF,00,
62993484,0000012F,false,Rx,0,8,E1,28,86,1C,F1,01,30,09,
62996044,000000A5,false,Rx,0,8,1C,F5,9B,B7,79,00,00,F1,
63005256,00000130,false,Rx,0,5,00,F0,FC,FF,FF,00,00,00,
63014248,000002BF,false,Rx,0,3,00,00,00,00,00,00,00,00,
63047920,000001A6,false,Rx,0,8,00,00,00,00,00,00,00,F3,
63049276,00000281,false,Rx,0,2,25,F3,00,00,00,00,00,00,
63056060,000000E4,false,Rx,0,8,0C,FB,86,7F,22,FF,7F,8E,
63057144,00000199,false,Rx,0,6,2E,FB,CC,7E,20,B0,00,00,
63058128,0000019A,false,Rx,0,6,68,FB,99,7E,00,20,00,00,
63059108,0000019F,false,Rx,0,6,1C,FB,00,80,00,20,00,00,
63060280,00000289,false,Rx,0,8,27,F1,E0,E0,E1,00,0C,00,
63061368,00000297,false,Rx,0,7,9B,F7,FC,FC,FC,FC,FC,00,
63062404,000001A1,false,Rx,0,5,FC,C6,00,00,81,00,00,00,
63063428,000001C4,false,Rx,0,7,00,00,00,00,F9,F4,FF,00,
63064560,000001C5,false,Rx,0,7,00,00,00,00,F9,F4,FF,00,
63065584,000002BB,false,Rx,0,5,6E,F1,00,00,F2,00,00,00,
63093472,0000012F,false,Rx,0,8,BC,29,86,1C,F1,01,30,09,
63096048,000000A5,false,Rx,0,8,40,FA,9B,B7,79,00,00,F1,
63105256,00000130,false,Rx,0,5,00,F0,FC,FF,FF,00,00,00,
63114600,000002BF,false,Rx,0,3,00,00,00,00,00,00,00,00,
63147940,000001A6,false,Rx,0,8,00,00,00,00,00,00,90,F4,
63149252,00000281,false,Rx,0,2,25,F3,00,00,00,00,00,00,
63150440,00000173,false,Rx,0,8,4F,F5,00,0E,30,00,FE,D0,
63156028,000000E4,false,Rx,0,8,EA,F6,86,7F,22,FF,7F,8E,
63157116,00000199,false,Rx,0,6,EC,F6,D1,7E,20,B0,00,00,
63158100,0000019A,false,Rx,0,6,E7,F6,9B,7E,00,20,00,00,
63159080,0000019F,false,Rx,0,6,66,F6,0C,80,00,20,00,00,
63160228,00000289,false,Rx,0,8,9D,F3,E0,E0,E1,00,0C,00,
63161304,000002BB,false,Rx,0,5,49,F3,00,00,F2,00,00,00,
63162228,0000018F,false,Rx,0,5,2D,81,F1,FF,FF,00,00,00,
63163156,000001A1,false,Rx,0,5,B3,CB,00,00,81,00,00,00,
63165100,000001C4,false,Rx,0,7,00,00,00,00,03,F5,FF,00,
63166124,000001C5,false,Rx,0,7,00,00,00,00,03,F5,FF,00,
63167148,00000302,false,Rx,0,7,FF,FF,2D,81,FF,FF,FF,00,
63193472,0000012F,false,Rx,0,8,5B,2A,86,1C,F1,01,30,09,
63196028,000000A5,false,Rx,0,8,28,F0,9B,B7,79,00,00,F1,
63205804,00000130,false,Rx,0,5,00,F0,FC,FF,FF,00,00,00,
63215020,000002BF,false,Rx,0,3,00,00,00,00,00,00,00,00,
63247916,000001A6,false,Rx,0,8,00,00,00,00,00,00,20,F6,
63249204,00000281,false,Rx,0,2,25,F3,00,00,00,00,00,00,
63256028,000000E4,false,Rx,0,8,64,F1,86,7F,22,FF,7F,8E,
63257112,00000199,false,Rx,0,6,AA,F1,CE,7E,20,B0,00,00,
63258096,0000019A,false,Rx,0,6,56,F1,98,7E,00,20,00,00,
63259080,0000019F,false,Rx,0,6,59,F1,FB,7F,00,20,00,00,
63260232,00000289,false,Rx,0,8,4E,F5,E0,E0,E1,00,0C,00,
63261320,00000297,false,Rx,0,7,5E,F8,FC,FC,FC,FC,FC,00,
63262352,000001A1,false,Rx,0,5,08,C1,00,00,81,00,00,00,
63263388,000001C4,false,Rx,0,7,00,00,00,00,0D,F5,FF,00,
63264520,000001C5,false,Rx,0,7,00,00,00,00,0D,F5,FF,00,
63265536,000002BB,false,Rx,0,5,20,F5,00,00,F2,00,00,00,
63267880,00000510,false,Rx,0,8,00,00,00,00,FF,FF,00,10,
63280836,000003FB,false,Rx,0,6,C7,90,01,10,F1,48,00,00,
63293476,0000012F,false,Rx,0,8,BC,2B,86,1C,F2,01,30,09,
63296040,000000A5,false,Rx,0,8,1C,F5,9B,B7,79,00,00,F1,
63297192,000003F9,false,Rx,0,8,1D,14,80,70,7C,44,2F,47,
63305868,00000130,false,Rx,0,5,00,F0,FC,FF,FF,00,00,00,
63315716,000002F9,false,Rx,0,6,00,FF,00,08,FF,F0,00,00,
63316684,000002BF,false,Rx,0,3,00,00,00,00,00,00,00,00,
63342612,000002F7,false,Rx,0,6,02,99,51,11,11,F1,00,00,
63347884,000001A6,false,Rx,0,8,00,00,00,00,00,00,B0,F7,
63349204,00000281,false,Rx,0,2,25,F3,00,00,00,00,00,00,
63350412,00000173,false,Rx,0,8,13,FA,00,0E,30,00,FE,D0,
63353420,000002ED,false,Rx,0,3,70,F0,01,00,00,00,00,00,
63356056,000000E4,false,Rx,0,8,0C,FB,86,7F,22,FF,7F,8E,
63357140,00000199,false,Rx,0,6,FE,FB,D2,7E,20,B0,00,00,
63358124,0000019A,false,Rx,0,6,D2,FB,9A,7E,00,20,00,00,
63359104,0000019F,false,Rx,0,6,52,FB,04,80,00,20,00,00,
63361104,00000289,false,Rx,0,8,F4,F7,E0,E0,E1,00,0C,00,
63362180,0000018F,false,Rx,0,5,2D,81,F1,FF,FF,00,00,00,
63363108,000001A1,false,Rx,0,5,FC,C6,00,00,81,00,00,00,
63365048,000001C4,false,Rx,0,7,00,00,00,00,17,F5,FF,00,
63366076,000001C5,false,Rx,0,7,00,00,00,00,17,F5,FF,00,
63367088,000002A6,false,Rx,0,2,00,EC,00,00,00,00,00,00,
63368868,00000302,false,Rx,0,7,FF,FF,2D,81,FF,FF,FF,00,
63369892,000001EA,false,Rx,0,2,FF,FF,00,00,00,00,00,00,
63370656,000003E6,false,Rx,0,2,FF,FF,00,00,00,00,00,00,
63371428,000002BB,false,Rx,0,5,07,F7,00,00,F2,00,00,00,
63393464,0000012F,false,Rx,0,8,32,2C,86,1C,F2,01,30,09,
63394696,000005F8,false,Rx,0,8,13,FF,C0,78,FF,FF,FF,FF,
63396084,000000A5,false,Rx,0,8,40,FA,9B,B7,79,00,00,F1,
63405796,00000130,false,Rx,0,5,00,F0,FC,FF,FF,00,00,00,
63415832,000002BF,false,Rx,0,3,00,00,00,00,00,00,00,00,
63447912,000001A6,false,Rx,0,8,00,00,00,00,00,00,40,F9,
63448968,000001B9,false,Rx,0,2,00,FF,00,00,00,00,00,00,
63449724,00000281,false,Rx,0,2,25,F3,00,00,00,00,00,00,
63450504,000002C4,false,Rx,0,8,00,00,FF,64,64,64,00,F0,
63456024,000000E4,false,Rx,0,8,EA,F6,86,7F,22,FF,7F,8E,
63457108,00000199,false,Rx,0,6,87,F6,C5,7E,20,B0,00,00,
63458096,0000019A,false,Rx,0,6,8E,F6,9D,7E,00,20,00,00,
63459076,0000019F,false,Rx,0,6,1D,F6,F6,7F,00,20,00,00,
63461080,00000289,false,Rx,0,8,F5,F9,E0,E0,E1,00,0C,00,
63462160,00000297,false,Rx,0,7,18,F9,FC,FC,FC,FC,FC,00,
63463196,000001A1,false,Rx,0,5,B3,CB,00,00,81,00,00,00,
63464120,000002BB,false,Rx,0,5,F2,F9,00,00,F2,00,00,00,
63466064,000001C4,false,Rx,0,7,00,00,00,00,21,F5,FF,00,
63467092,000001C5,false,Rx,0,7,00,00,00,00,21,F5,FF,00,
63493464,0000012F,false,Rx,0,8,D5,2D,86,1C,F1,01,30,09,
63496020,000000A5,false,Rx,0,8,28,F0,9B,B7,79,00,00,F1,
63505792,00000130,false,Rx,0,5,00,F0,FC,FF,FF,00,00,00,
63516208,000002BF,false,Rx,0,3,00,00,00,00,00,00,00,00,
63531956,000002CA,false,Rx,0,2,66,70,00,00,00,00,00,00,
63547908,000001A6,false,Rx,0,8,00,00,00,00,00,00,D0,FA,
63549236,00000281,false,Rx,0,2,25,F3,00,00,00,00,00,00,
63550436,00000173,false,Rx,0,8,7B,F0,00,0E,30,00,FE,D0,
63556020,000000E4,false,Rx,0,8,64,F1,86,7F,22,FF,7F,8E,
63557104,00000199,false,Rx,0,6,A9,F1,D5,7E,20,B0,00,00,
63558092,0000019A,false,Rx,0,6,EC,F1,9B,7E,00,20,00,00,
63559072,0000019F,false,Rx,0,6,AC,F1,F5,7F,00,20,00,00,
63560204,00000289,false,Rx,0,8,4F,FB,E0,E0,E1,00,0C,00,
63561284,000002BB,false,Rx,0,5,D5,FB,00,00,F2,00,00,00,
63562204,0000018F,false,Rx,0,5,2D,81,F1,FF,FF,00,00,00,
63563136,000001A1,false,Rx,0,5,08,C1,00,00,81,00,00,00,
63565076,000001C4,false,Rx,0,7,00,00,00,00,2B,F5,FF,00,
63566104,000001C5,false,Rx,0,7,00,00,00,00,2B,F5,FF,00,
63567132,00000302,false,Rx,0,7,FF,FF,2D,81,FF,FF,FF,00,
63593468,0000012F,false,Rx,0,8,32,2E,86,1C,F1,01,30,09,
63596024,000000A5,false,Rx,0,8,1C,F5,9B,B7,79,00,00,F1,
63605796,00000130,false,Rx,0,5,00,F0,FC,FF,FF,00,00,00,
63616612,000002BF,false,Rx,0,3,00,00,00,00,00,00,00,00,
63647912,000001A6,false,Rx,0,8,00,00,00,00,00,00,60,FC,
63649260,00000281,false,Rx,0,2,25,F3,00,00,00,00,00,00,
63656048,000000E4,false,Rx,0,8,0C,FB,86,7F,22,FF,7F,8E,
63657128,00000199,false,Rx,0,6,94,FB,CF,7E,20,B0,00,00,
63658116,0000019A,false,Rx,0,6,9D,FB,97,7E,00,20,00,00,
63659096,0000019F,false,Rx,0,6,CF,FB,05,80,00,20,00,00,
63660260,00000289,false,Rx,0,8,9C,FD,E0,E0,E1,00,0C,00,
63661356,00000297,false,Rx,0,7,D2,FA,FC,FC,FC,FC,FC,00,
63662392,000001A1,false,Rx,0,5,FC,C6,00,00,81,00,00,00,
63663408,000001C4,false,Rx,0,7,00,00,00,00,35,F5,FF,00,
63664528,000001C5,false,Rx,0,7,00,00,00,00,35,F5,FF,00,
63665548,000002BB,false,Rx,0,5,BC,FD,00,00,F2,00,00,00,
63675744,00000328,false,Rx,0,6,3E,44,EF,11,0E,22,00,00,
63693460,0000012F,false,Rx,0,8,33,20,86,1C,F1,01,30,09,
63696032,000000A5,false,Rx,0,8,40,FA,9B,B7,79,00,00,F1,
63705784,00000130,false,Rx,0,5,00,F0,FC,FF,FF,00,00,00,
63716988,000002BF,false,Rx,0,3,00,00,00,00,00,00,00,00,
63747908,000001A6,false,Rx,0,8,00,00,00,00,00,00,F0,FD,
63749156,00000281,false,Rx,0,2,25,F3,00,00,00,00,00,00,
63750344,00000173,false,Rx,0,8,4F,F5,00,0E,30,00,FE,D0,
63756008,000000E4,false,Rx,0,8,EA,F6,86,7F,22,FF,7F,8E,
63757096,00000199,false,Rx,0,6,10,F6,CB,7E,1F,B0,00,00,
63758080,0000019A,false,Rx,0,6,A8,F6,96,7E,00,20,00,00,
63759060,0000019F,false,Rx,0,6,B4,F6,00,80,00,20,00,00,
63761056,00000289,false,Rx,0,8,7A,F0,E0,E0,E1,00,0C,00,
63762136,0000018F,false,Rx,0,5,2D,81,F1,FF,FF,00,00,00,
63763064,000001A1,false,Rx,0,5,B3,CB,00,00,81,00,00,00,
63765004,000001C4,false,Rx,0,7,00,00,00,00,3F,F5,FF,00,
63766032,000001C5,false,Rx,0,7,00,00,00,00,3F,F5,FF,00,
63767060,00000302,false,Rx,0,7,FF,FF,2D,81,FF,FF,FF,00,
63768096,000002BB,false,Rx,0,5,F3,F0,00,00,F2,00,00,00,
63793476,0000012F,false,Rx,0,8,D4,21,86,1C,F2,01,30,09,
63796008,000000A5,false,Rx,0,8,28,F0,9B,B7,79,00,00,F1,
63805644,00000130,false,Rx,0,5,00,F0,FC,FF,FF,00,00,00,
63817384,000002BF,false,Rx,0,3,00,00,00,00,00,00,00,00,
63847904,000001A6,false,Rx,0,8,00,00,00,00,00,00,80,FF,
63849164,00000281,false,Rx,0,2,25,F3,00,00,00,00,00,00,
63856064,000000E4,false,Rx,0,8,64,F1,86,7F,22,FF,7F,8E,
63857152,00000199,false,Rx,0,6,1B,F1,CB,7E,1F,B0,00,00,
63858136,0000019A,false,Rx,0,6,18,F1,9C,7E,00,20,00,00,
63859116,0000019F,false,Rx,0,6,17,F1,FF,7F,00,20,00,00,
63860272,00000289,false,Rx,0,8,C0,F2,E0,E0,E1,00,0C,00,
63861360,00000297,false,Rx,0,7,94,FB,FC,FC,FC,FC,FC,00,
63862396,000001A1,false,Rx,0,5,08,C1,00,00,81,00,00,00,
63863424,000001C4,false,Rx,0,7,00,00,00,00,49,F5,FF,00,
63864540,000001C5,false,Rx,0,7,00,00,00,00,49,F5,FF,00,
63865564,000002BB,false,Rx,0,5,D4,F2,00,00,F2,00,00,00,
63893444,0000012F,false,Rx,0,8,33,22,86,1C,F2,01,30,09,
63896012,000000A5,false,Rx,0,8,1C,F5,9B,B7,79,00,00,F1,
63905636,00000130,false,Rx,0,5,00,F0,FC,FF,FF,00,00,00,
63907860,00000510,false,Rx,0,8,00,00,00,00,FF,FF,00,10,
63917740,000002BF,false,Rx,0,3,00,00,00,00,00,00,00,00,
63947900,000001A6,false,Rx,0,8,00,00,00,00,00,00,10,F1,
63949156,00000281,false,Rx,0,2,25,F3,00,00,00,00,00,00,
63950368,00000173,false,Rx,0,8,13,FA,00,0E,30,00,FE,D0,
63951576,000002C4,false,Rx,0,8,00,00,FF,64,64,64,00,F0,
63956036,000000E4,false,Rx,0,8,0C,FB,86,7F,22,FF,7F,8E,
63957120,00000199,false,Rx,0,6,4F,FB,D7,7E,1F,B0,00,00,
63958104,0000019A,false,Rx,0,6,9C,FB,9E,7E,00,20,00,00,
63959084,0000019F,false,Rx,0,6,93,FB,FD,7F,00,20,00,00,
63960260,00000289,false,Rx,0,8,13,F4,E0,E0,E1,00,0C,00,
63961336,000002BB,false,Rx,0,5,BD,F4,00,00,F2,00,00,00,
63962260,0000018F,false,Rx,0,5,2D,81,F1,FF,FF,00,00,00,
63963188,000001A1,false,Rx,0,5,FC,C6,00,00,81,00,00,00,
63964140,000001C4,false,Rx,0,7,00,00,00,00,53,F5,FF,00,
63965256,000001C5,false,Rx,0,7,00,00,00,00,53,F5,FF,00,
63966400,00000302,false,Rx,0,7,FF,FF,2D,81,FF,FF,FF,00,
63993412,0000012F,false,Rx,0,8,D4,23,86,1C,F1,01,30,09,
63996020,000000A5,false,Rx,0,8,40,FA,9B,B7,79,00,00,F1,
64005232,00000130,false,Rx,0,5,00,F0,FC,FF,FF,00,00,00,
64018228,000002BF,false,Rx,0,3,00,00,00,00,00,00,00,00,
64047888,000001A6,false,Rx,0,8,00,00,00,00,00,00,A0,F2,
64048948,00000281,false,Rx,0,2,25,F3,00,00,00,00,00,00,
64056052,000000E4,false,Rx,0,8,EA,F6,86,7F,22,FF,7F,8E,
64057140,00000199,false,Rx,0,6,37,F6,C9,7E,1F,B0,00,00,
64058124,0000019A,false,Rx,0,6,12,F6,95,7E,00,20,00,00,
64059104,0000019F,false,Rx,0,6,A7,F6,F5,7F,00,20,00,00,
64060268,00000289,false,Rx,0,8,A9,F6,E0,E0,E1,00,0C,00,
64061356,00000297,false,Rx,0,7,5B,FC,FC,FC,FC,FC,FC,00,
64062388,000001A1,false,Rx,0,5,B3,CB,00,00,81,00,00,00,
64063384,000001C4,false,Rx,0,7,00,00,00,00,5D,F5,FF,00,
64064508,000001C5,false,Rx,0,7,00,00,00,00,5D,F5,FF,00,
64065528,000002BB,false,Rx,0,5,9A,F6,00,00,F2,00,00,00,
64093408,0000012F,false,Rx,0,8,5A,24,86,1C,F1,01,30,09,
64095996,000000A5,false,Rx,0,8,28,F0,9B,B7,79,00,00,F1,
64105192,00000130,false,Rx,0,5,00,F0,FC,FF,FF,00,00,00,
64118612,000002BF,false,Rx,0,3,00,00,00,00,00,00,00,00,
64147852,000001A6,false,Rx,0,8,00,00,00,00,00,00,30,F4,
64149192,00000281,false,Rx,0,2,25,F3,00,00,00,00,00,00,
64150392,00000173,false,Rx,0,8,7B,F0,00,0E,30,00,FE,D0,
64155996,000000E4,false,Rx,0,8,64,F1,86,7F,22,FF,7F,8E,
64157084,00000199,false,Rx,0,6,3F,F1,D2,7E,1F,B0,00,00,
64158068,0000019A,false,Rx,0,6,56,F1,98,7E,00,20,00,00,
64159052,0000019F,false,Rx,0,6,4B,F1,07,80,00,20,00,00,
64160236,00000289,false,Rx,0,8,A8,F8,E0,E0,E1,00,0C,00,
64161312,000002BB,false,Rx,0,5,6F,F8,00,00,F2,00,00,00,
64162232,0000018F,false,Rx,0,5,2D,81,F1,FF,FF,00,00,00,
64163164,000001A1,false,Rx,0,5,08,C1,00,00,81,00,00,00,
64164108,000001C4,false,Rx,0,7,00,00,00,00,67,F5,FF,00,
64165228,000001C5,false,Rx,0,7,00,00,00,00,67,F5,FF,00,
64166380,00000302,false,Rx,0,7,FF,FF,2D,81,FF,FF,FF,00,
64191452,000005F2,false,Rx,0,8,08,04,00,02,FF,FF,FF,FF,
64193424,0000012F,false,Rx,0,8,07,25,86,1C,F1,01,30,09,
64196000,000000A5,false,Rx,0,8,1C,F5,9B,B7,79,00,00,F1,
64205524,0000026E,false,Rx,0,8,00,00,00,00,FF,FF,FF,FF,
64206596,00000130,false,Rx,0,5,00,F0,FC,FF,FF,00,00,00,
64218972,000002BF,false,Rx,0,3,00,00,00,00,00,00,00,00,
64247888,000001A6,false,Rx,0,8,00,00,00,00,00,00,C0,F5,
64249236,00000281,false,Rx,0,2,25,F3,00,00,00,00,00,00,
64255812,00000297,false,Rx,0,7,1D,FD,FC,FC,FC,FC,FC,00,
64257004,000000E4,false,Rx,0,8,0C,FB,86,7F,22,FF,7F,8E,
64258092,00000199,false,Rx,0,6,BB,FB,D0,7E,1F,B0,00,00,
64259076,0000019A,false,Rx,0,6,68,FB,99,7E,00,20,00,00,
64260052,0000019F,false,Rx,0,6,CF,FB,05,80,00,20,00,00,
64262052,00000289,false,Rx,0,8,12,FA,E0,E0,E1,00,0C,00,
64263128,000001A1,false,Rx,0,5,FC,C6,00,00,81,00,00,00,
64264052,000002BB,false,Rx,0,5,48,FA,00,00,F2,00,00,00,
64265992,000001C4,false,Rx,0,7,00,00,00,00,71,F5,FF,00,
64267020,000001C5,false,Rx,0,7,00,00,00,00,71,F5,FF,00,
64279744,000003FB,false,Rx,0,6,C7,90,01,10,F1,48,00,00,
64293420,0000012F,false,Rx,0,8,E0,26,86,1C,F1,01,30,09,
64296036,000000A5,false,Rx,0,8,40,FA,9B,B7,79,00,00,F1,
64297420,000003F9,false,Rx,0,8,40,15,80,70,7C,44,2F,47,
64305188,00000130,false,Rx,0,5,00,F0,FC,FF,FF,00,00,00,
64319628,000002F9,false,Rx,0,6,00,FF,00,08,FF,F0,00,00,
64320592,000002BF,false,Rx,0,3,00,00,00,00,00,00,00,00,
64342160,000002F7,false,Rx,0,6,02,99,51,11,11,F1,00,00,
64347888,000001A6,false,Rx,0,8,00,00,00,00,00,00,50,F7,
64349164,00000281,false,Rx,0,2,25,F3,00,00,00,00,00,00,
64350356,00000173,false,Rx,0,8,4F,F5,00,0E,30,00,FE,D0,
64353372,000002ED,false,Rx,0,3,3C,F1,01,00,00,00,00,00,
64355984,000000E4,false,Rx,0,8,EA,F6,86,7F,22,FF,7F,8E,
64357072,00000199,false,Rx,0,6,E4,F6,CC,7E,1F,B0,00,00,
64358056,0000019A,false,Rx,0,6,35,F6,97,7E,00,20,00,00,
64359040,0000019F,false,Rx,0,6,28,F6,08,80,00,20,00,00,
64360192,00000289,false,Rx,0,8,C1,FC,E0,E0,E1,00,0C,00,
64361268,000002BB,false,Rx,0,5,21,FC,00,00,F2,00,00,00,
64362192,0000018F,false,Rx,0,5,2D,81,F1,FF,FF,00,00,00,
64363120,000001A1,false,Rx,0,5,B3,CB,00,00,81,00,00,00,
64364068,000001C4,false,Rx,0,7,00,00,00,00,7B,F5,FF,00,
64365188,000001C5,false,Rx,0,7,00,00,00,00,7B,F5,FF,00,
64366200,000001EE,false,Rx,0,2,00,FF,00,00,00,00,00,00,
64367972,000002A6,false,Rx,0,2,00,F4,00,00,00,00,00,00,
64368724,000001D6,false,Rx,0,2,F0,CC,00,00,00,00,00,00,
64369480,000001EA,false,Rx,0,2,FF,FF,00,00,00,00,00,00,
64370248,000003E6,false,Rx,0,2,FF,FF,00,00,00,00,00,00,
64372036,00000302,false,Rx,0,7,FF,FF,2D,81,FF,FF,FF,00,
64393428,0000012F,false,Rx,0,8,07,27,86,1C,F2,01,30,09,
64395984,000000A5,false,Rx,0,8,28,F0,9B,B7,79,00,00,F1,
64398548,000005F8,false,Rx,0,8,13,FF,C0,78,FF,FF,FF,FF,
64405172,00000130,false,Rx,0,5,00,F0,FC,FF,FF,00,00,00,
64419772,000002BF,false,Rx,0,3,00,00,00,00,00,00,00,00,
64447872,000001A6,false,Rx,0,8,00,00,00,00,00,00,E0,F8,
64448932,000001B9,false,Rx,0,2,00,FF,00,00,00,00,00,00,
64449684,00000281,false,Rx,0,2,25,F3,00,00,00,00,00,00,
64450752,000002C4,false,Rx,0,8,00,00,FF,64,64,64,00,F0,
64455308,00000297,false,Rx,0,7,D7,FE,FC,FC,FC,FC,FC,00,
64456460,000000E4,false,Rx,0,8,64,F1,86,7F,22,FF,7F,8E,
64457548,00000199,false,Rx,0,6,EF,F1,CC,7E,1F,B0,00,00,
64458532,0000019A,false,Rx,0,6,18,F1,9C,7E,00,20,00,00,
64459512,0000019F,false,Rx,0,6,F0,F1,0D,80,00,20,00,00,
64460672,00000289,false,Rx,0,8,7B,FE,E0,E0,E1,00,0C,00,
64461748,000002BB,false,Rx,0,5,06,FE,00,00,F2,00,00,00,
64462668,000001A1,false,Rx,0,5,08,C1,00,00,81,00,00,00,
64463668,000001C4,false,Rx,0,7,00,00,00,00,85,F5,FF,00,
64464788,000001C5,false,Rx,0,7,00,00,00,00,85,F5,FF,00,
64493380,0000012F,false,Rx,0,8,5B,28,86,1C,F2,01,30,09,
64495988,000000A5,false,Rx,0,8,1C,F5,9B,B7,79,00,00,F1,
64505604,00000130,false,Rx,0,5,00,F0,FC,FF,FF,00,00,00,
64520104,000002BF,false,Rx,0,3,00,00,00,00,00,00,00,00,
64531760,000002CA,false,Rx,0,2,66,70,00,00,00,00,00,00,
64547860,00000510,false,Rx,0,8,00,00,00,00,FF,FF,00,10,
64549072,000001A6,false,Rx,0,8,00,00,00,00,00,00,70,FA,
64550264,00000173,false,Rx,0,8,13,FA,00,0E,30,00,FE,D0,
64551332,00000281,false,Rx,0,2,25,F3,00,00,00,00,00,00,
64556004,000000E4,false,Rx,0,8,0C,FB,86,7F,22,FF,7F,8E,
64557092,00000199,false,Rx,0,6,26,FB,D1,7E,1F,B0,00,00,
64558072,0000019A,false,Rx,0,6,26,FB,9D,7E,00,20,00,00,
64559056,0000019F,false,Rx,0,6,75,FB,06,80,00,20,00,00,
64560232,00000289,false,Rx,0,8,27,F1,E0,E0,E1,00,0C,00,
64561308,000002BB,false,Rx,0,5,6E,F1,00,00,F2,00,00,00,
64562232,0000018F,false,Rx,0,5,2D,81,F1,FF,FF,00,00,00,
64563156,000001A1,false,Rx,0,5,FC,C6,00,00,81,00,00,00,
64564112,000001C4,false,Rx,0,7,00,00,00,00,8F,F5,FF,00,
64565232,000001C5,false,Rx,0,7,00,00,00,00,8F,F5,FF,00,
64566388,00000302,false,Rx,0,7,FF,FF,2D,81,FF,FF,FF,00,
64593384,0000012F,false,Rx,0,8,BC,29,86,1C,F1,01,30,09,
64596000,000000A5,false,Rx,0,8,40,FA,9B,B7,79,00,00,F1,
64605252,00000130,false,Rx,0,5,00,F0,FC,FF,FF,00,00,00,
64620500,000002BF,false,Rx,0,3,00,00,00,00,00,00,00,00,
64624144,000005E7,false,Rx,0,8,99,01,0A,08,06,00,00,00,
64647772,000001A6,false,Rx,0,8,00,00,00,00,00,00,00,FC,
64648840,00000281,false,Rx,0,2,25,F3,00,00,00,00,00,00,
64655032,00000297,false,Rx,0,7,54,F0,FC,FC,FC,FC,FC,00,
64656184,000000E4,false,Rx,0,8,EA,F6,86,7F,22,FF,7F,8E,
64657272,00000199,false,Rx,0,6,8E,F6,D1,7E,1F,B0,00,00,
64658256,0000019A,false,Rx,0,6,12,F6,95,7E,00,20,00,00,
64659236,0000019F,false,Rx,0,6,41,F6,0E,80,00,20,00,00,
64660408,00000289,false,Rx,0,8,9D,F3,E0,E0,E1,00,0C,00,
64661484,000002BB,false,Rx,0,5,49,F3,00,00,F2,00,00,00,
64662408,000001A1,false,Rx,0,5,B3,CB,00,00,81,00,00,00,
64664348,000001C4,false,Rx,0,7,00,00,00,00,99,F5,FF,00,
64665376,000001C5,false,Rx,0,7,00,00,00,00,99,F5,FF,00,
64675640,00000328,false,Rx,0,6,3F,44,EF,11,0E,22,00,00,
64693392,0000012F,false,Rx,0,8,5B,2A,86,1C,F1,01,30,09,
64695976,000000A5,false,Rx,0,8,28,F0,9B,B7,79,00,00,F1,
64705180,00000130,false,Rx,0,5,00,F0,FC,FF,FF,00,00,00,
64720944,000002BF,false,Rx,0,3,00,00,00,00,00,00,00,00,
64747884,000001A6,false,Rx,0,8,00,00,00,00,00,00,90,FD,
64749228,00000281,false,Rx,0,2,25,F3,00,00,00,00,00,00,
64750428,00000173,false,Rx,0,8,7B,F0,00,0E,30,00,FE,D0,
64755972,000000E4,false,Rx,0,8,64,F1,86,7F,22,FF,7F,8E,
64757060,00000199,false,Rx,0,6,EF,F1,CC,7E,1F,B0,00,00,
64758044,0000019A,false,Rx,0,6,CB,F1,99,7E,00,20,00,00,
64759028,0000019F,false,Rx,0,6,30,F1,FD,7F,00,20,00,00,
64761028,00000289,false,Rx,0,8,4E,F5,E0,E0,E1,00,0C,00,
64762104,0000018F,false,Rx,0,5,2D,81,F1,FF,FF,00,00,00,
64763036,000001A1,false,Rx,0,5,08,C1,00,00,81,00,00,00,
64764972,000001C4,false,Rx,0,7,00,00,00,00,A3,F5,FF,00,
64766000,000001C5,false,Rx,0,7,00,00,00,00,A3,F5,FF,00,
64767028,00000302,false,Rx,0,7,FF,FF,2D,81,FF,FF,FF,00,
64768064,000002BB,false,Rx,0,5,20,F5,00,00,F2,00,00,00,
64793372,0000012F,false,Rx,0,8,06,2B,86,1C,F1,01,30,09,
64795976,000000A5,false,Rx,0,8,1C,F5,9B,B7,79,00,00,F1,
64805176,00000130,false,Rx,0,5,00,F0,FC,FF,FF,00,00,00,
64821352,000002BF,false,Rx,0,3,00,00,00,00,00,00,00,00,
64847764,000001A6,false,Rx,0,8,00,00,00,00,00,00,20,FF,
64849124,00000281,false,Rx,0,2,25,F3,00,00,00,00,00,00,
64854812,00000297,false,Rx,0,7,12,F1,FC,FC,FC,FC,FC,00,
64855992,000000E4,false,Rx,0,8,0C,FB,86,7F,22,FF,7F,8E,
64857076,00000199,false,Rx,0,6,BB,FB,D0,7E,1F,B0,00,00,
64858060,0000019A,false,Rx,0,6,D2,FB,9A,7E,00,20,00,00,
64859044,0000019F,false,Rx,0,6,75,FB,06,80,00,20,00,00,
64860232,00000289,false,Rx,0,8,F4,F7,E0,E0,E1,00,0C,00,
64861312,000002BB,false,Rx,0,5,07,F7,00,00,F2,00,00,00,
64862228,000001A1,false,Rx,0,5,FC,C6,00,00,81,00,00,00,
64863196,000001C4,false,Rx,0,7,00,00,00,00,AD,F5,FF,00,
64864332,000001C5,false,Rx,0,7,00,00,00,00,AD,F5,FF,00,
64893432,0000012F,false,Rx,0,8,32,2C,86,1C,F2,01,30,09,
64895984,000000A5,false,Rx,0,8,40,FA,9B,B7,79,00,00,F1,
64905592,00000130,false,Rx,0,5,00,F0,FC,FF,FF,00,00,00,
64921704,000002BF,false,Rx,0,3,00,00,00,00,00,00,00,00,
64947760,000001A6,false,Rx,0,8,00,00,00,00,00,00,B0,F0,
64949136,00000281,false,Rx,0,2,25,F3,00,00,00,00,00,00,
64950328,00000173,false,Rx,0,8,4F,F5,00,0E,30,00,FE,D0,
64951532,000002C4,false,Rx,0,8,00,00,FF,64,64,64,00,F0,
64955968,000000E4,false,Rx,0,8,EA,F6,86,7F,22,FF,7F,8E,
64957052,00000199,false,Rx,0,6,5E,F6,CF,7E,1F,B0,00,00,
64958040,0000019A,false,Rx,0,6,E7,F6,9B,7E,00,20,00,00,
64959020,0000019F,false,Rx,0,6,0F,F6,0A,80,00,20,00,00,
64961016,00000289,false,Rx,0,8,F5,F9,E0,E0,E1,00,0C,00,
64962092,0000018F,false,Rx,0,5,2D,81,F1,FF,FF,00,00,00,
64963024,000001A1,false,Rx,0,5,B3,CB,00,00,81,00,00,00,
64964968,000001C4,false,Rx,0,7,00,00,00,00,B7,F5,FF,00,
64965996,000001C5,false,Rx,0,7,00,00,00,00,B7,F5,FF,00,
64967020,00000302,false,Rx,0,7,FF,FF,2D,81,FF,FF,FF,00,
64968056,000002BB,false,Rx,0,5,F2,F9,00,00,F2,00,00,00,
64993360,0000012F,false,Rx,0,8,6F,2D,86,1C,F2,01,30,09,
64995964,000000A5,false,Rx,0,8,28,F0,9B,B7,79,00,00,F1,
65005592,00000130,false,Rx,0,5,00,F0,FC,FF,FF,00,00,00,
65022128,000002BF,false,Rx,0,3,00,00,00,00,00,00,00,00,
65047744,000001A6,false,Rx,0,8,00,00,00,00,00,00,40,F2,
65049196,00000281,false,Rx,0,2,25,F3,00,00,00,00,00,00,
65054672,00000297,false,Rx,0,7,D8,F2,FC,FC,FC,FC,FC,00,
65055960,000000E4,false,Rx,0,8,64,F1,86,7F,22,FF,7F,8E,
65057048,00000199,false,Rx,0,6,3F,F1,D2,7E,1F,B0,00,00,
65058032,0000019A,false,Rx,0,6,3E,F1,97,7E,00,20,00,00,
65059012,0000019F,false,Rx,0,6,D6,F1,06,80,00,20,00,00,
65060184,00000289,false,Rx,0,8,4F,FB,E0,E0,E1,00,0C,00,
65061260,000002BB,false,Rx,0,5,D5,FB,00,00,F2,00,00,00,
65062184,000001A1,false,Rx,0,5,08,C1,00,00,81,00,00,00,
65063160,000001C4,false,Rx,0,7,00,00,00,00,C1,F5,FF,00,
65064292,000001C5,false,Rx,0,7,00,00,00,00,C1,F5,FF,00,
65093376,0000012F,false,Rx,0,8,32,2E,86,1C,F1,01,30,09,
65095968,000000A5,false,Rx,0,8,1C,F5,9B,B7,79,00,00,F1,
65105148,00000130,false,Rx,0,5,00,F0,FC,FF,FF,00,00,00,
65122496,000002BF,false,Rx,0,3,00,00,00,00,00,00,00,00,
65147860,000001A6,false,Rx,0,8,00,00,00,00,00,00,D0,F3,
65149216,00000281,false,Rx,0,2,25,F3,00,00,00,00,00,00,
65150428,00000173,false,Rx,0,8,13,FA,00,0E,30,00,FE,D0,
65155984,000000E4,false,Rx,0,8,0C,FB,86,7F,22,FF,7F,8E,
65157068,00000199,false,Rx,0,6,6B,FB,CE,7E,1F,B0,00,00,
65158056,0000019A,false,Rx,0,6,4F,FB,9B,7E,00,20,00,00,
65159036,0000019F,false,Rx,0,6,53,FB,0D,80,00,20,00,00,
65160224,00000289,false,Rx,0,8,9C,FD,E0,E0,E1,00,0C,00,
65161300,000002BB,false,Rx,0,5,BC,FD,00,00,F2,00,00,00,
65162216,0000018F,false,Rx,0,5,2D,81,F1,FF,FF,00,00,00,
65163148,000001A1,false,Rx,0,5,FC,C6,00,00,81,00,00,00,
65164092,000001C4,false,Rx,0,7,00,00,00,00,CB,F5,FF,00,
65165204,000001C5,false,Rx,0,7,00,00,00,00,CB,F5,FF,00,
65166360,00000302,false,Rx,0,7,FF,FF,2D,81,FF,FF,FF,00,
65187848,00000510,false,Rx,0,8,00,00,00,00,FF,FF,00,10,
65193376,0000012F,false,Rx,0,8,33,20,86,1C,F1,01,30,09,
65195980,000000A5,false,Rx,0,8,40,FA,9B,B7,79,00,00,F1,
65205424,000002FC,false,Rx,0,7,81,11,01,00,00,00,00,00,
65206444,00000130,false,Rx,0,5,00,F0,FC,FF,FF,00,00,00,
65222896,000002BF,false,Rx,0,3,00,00,00,00,00,00,00,00,
65232488,000003B5,false,Rx,0,2,FF,00,00,00,00,00,00,00,
65247756,000001A6,false,Rx,0,8,00,00,00,00,00,00,60,F5,
65248828,00000281,false,Rx,0,2,25,F3,00,00,00,00,00,00,
65254324,00000297,false,Rx,0,7,9E,F3,FC,FC,FC,FC,FC,00,
65255952,000000E4,false,Rx,0,8,EA,F6,86,7F,22,FF,7F,8E,
65257040,00000199,false,Rx,0,6,13,F6,D0,7E,1F,B0,00,00,
65258024,0000019A,false,Rx,0,6,C0,F6,99,7E,00,20,00,00,
65259004,0000019F,false,Rx,0,6,0F,F6,0A,80,00,20,00,00,
65261000,00000289,false,Rx,0,8,7A,F0,E0,E0,E1,00,0C,00,
65262080,000001A1,false,Rx,0,5,B3,CB,00,00,81,00,00,00,
65263000,000002BB,false,Rx,0,5,F3,F0,00,00,F2,00,00,00,
65264944,000001C4,false,Rx,0,7,00,00,00,00,D5,F5,FF,00,
65265968,000001C5,false,Rx,0,7,00,00,00,00,D5,F5,FF,00,
65279772,000003FB,false,Rx,0,6,C7,90,01,10,F1,48,00,00,
65280912,000003B3,false,Rx,0,7,1F,00,FF,7F,00,03,F8,00,
65287508,000003A5,false,Rx,0,5,E1,D5,FF,FF,FF,00,00,00,
65293348,0000012F,false,Rx,0,8,6E,21,86,1C,F1,01,30,09,
65295972,000000A5,false,Rx,0,8,28,F0,9B,B7,79,00,00,F1,
65297372,000003F9,false,Rx,0,8,A7,16,80,70,7C,44,2F,47,
65305132,00000130,false,Rx,0,5,00,F0,FC,FF,FF,00,00,00,
65323564,000002F9,false,Rx,0,6,00,FF,00,08,FF,F0,00,00,
65324532,000002BF,false,Rx,0,3,00,00,00,00,00,00,00,00,
65342076,000002F7,false,Rx,0,6,02,99,51,11,11,F1,00,00,
65347836,000001A6,false,Rx,0,8,00,00,00,00,00,00,F0,F6,
65349204,00000281,false,Rx,0,2,25,F3,00,00,00,00,00,00,
65350400,00000173,false,Rx,0,8,7B,F0,00,0E,30,00,FE,D0,
65353336,000002ED,false,Rx,0,3,E8,F2,01,00,00,00,00,00,
65355948,000000E4,false,Rx,0,8,64,F1,86,7F,22,FF,7F,8E,
65357032,00000199,false,Rx,0,6,C8,F1,CE,7E,1F,B0,00,00,
65358020,0000019A,false,Rx,0,6,84,F1,94,7E,00,20,00,00,
65359000,0000019F,false,Rx,0,6,23,F1,08,80,00,20,00,00,
65360124,00000289,false,Rx,0,8,C0,F2,E0,E0,E1,00,0C,00,
65361200,000002BB,false,Rx,0,5,D4,F2,00,00,F2,00,00,00,
65362124,0000018F,false,Rx,0,5,2D,81,F1,FF,FF,00,00,00,
65363052,000001A1,false,Rx,0,5,08,C1,00,00,81,00,00,00,
65364984,000001C4,false,Rx,0,7,00,00,00,00,DF,F5,FF,00,
65365996,000001EE,false,Rx,0,2,00,FF,00,00,00,00,00,00,
65367764,000002A6,false,Rx,0,2,00,84,00,00,00,00,00,00,
65368524,000001D6,false,Rx,0,2,F0,CC,00,00,00,00,00,00,
65369284,000001EA,false,Rx,0,2,FF,FF,00,00,00,00,00,00,
65370048,000003E6,false,Rx,0,2,FF,FF,00,00,00,00,00,00,
65371836,000001C5,false,Rx,0,7,00,00,00,00,DF,F5,FF,00,
65393348,0000012F,false,Rx,0,8,89,22,86,1C,F1,01,30,09,
65395948,000000A5,false,Rx,0,8,1C,F5,9B,B7,79,00,00,F1,
65402460,000005F8,false,Rx,0,8,13,FF,C0,78,FF,FF,FF,FF,
65405100,00000130,false,Rx,0,5,00,F0,FC,FF,FF,00,00,00,
65415148,000002A0,false,Rx,0,8,88,88,88,01,FF,FF,FF,FF,
65423672,000002BF,false,Rx,0,3,00,00,00,00,00,00,00,00,
65447748,000001A6,false,Rx,0,8,00,00,00,00,00,00,80,F8,
65448812,000001B9,false,Rx,0,2,00,FF,00,00,00,00,00,00,
65449564,00000281,false,Rx,0,2,25,F3,00,00,00,00,00,00,
65450688,000002C4,false,Rx,0,8,00,00,FF,64,64,64,00,F0,
65454112,00000297,false,Rx,0,7,51,F4,FC,FC,FC,FC,FC,00,
65455972,000000E4,false,Rx,0,8,0C,FB,86,7F,22,FF,7F,8E,
65457056,00000199,false,Rx,0,6,F6,FB,CF,7E,1F,B0,00,00,
65458040,0000019A,false,Rx,0,6,9D,FB,97,7E,00,20,00,00,
65459020,0000019F,false,Rx,0,6,1C,FB,00,80,00,20,00,00,
65460188,00000289,false,Rx,0,8,13,F4,E0,E0,E1,00,0C,00,
65461272,000002BB,false,Rx,0,5,BD,F4,00,00,F2,00,00,00,
65462188,000001A1,false,Rx,0,5,FC,C6,00,00,81,00,00,00,
65463136,000001C4,false,Rx,0,7,00,00,00,00,E9,F5,FF,00,
65464248,000001C5,false,Rx,0,7,00,00,00,00,E9,F5,FF,00,
65493352,0000012F,false,Rx,0,8,6E,23,86,1C,F2,01,30,09,
65495960,000000A5,false,Rx,0,8,40,FA,9B,B7,79,00,00,F1,
65505560,00000130,false,Rx,0,5,00,F0,FC,FF,FF,00,00,00,
65523140,000000EC,false,Rx,0,8,11,11,05,00,01,08,FF,FF,
65524204,000002BF,false,Rx,0,3,00,00,00,00,00,00,00,00,
65531672,000002CA,false,Rx,0,2,66,70,00,00,00,00,00,00,
65532880,000002F8,false,Rx,0,8,16,22,14,0D,BF,E7,07,F5,
65547752,000001A6,false,Rx,0,8,00,00,00,00,00,00,10,FA,
65549104,00000281,false,Rx,0,2,25,F3,00,00,00,00,00,00,
65550296,00000173,false,Rx,0,8,4F,F5,00,0E,30,00,FE,D0,
65555944,000000E4,false,Rx,0,8,EA,F6,86,7F,22,FF,7F,8E,
65557032,00000199,false,Rx,0,6,5E,F6,CF,7E,1F,B0,00,00,
65558016,0000019A,false,Rx,0,6,7A,F6,9A,7E,00,20,00,00,
65558996,0000019F,false,Rx,0,6,53,F6,F2,7F,00,20,00,00,
65560144,00000289,false,Rx,0,8,A9,F6,E0,E0,E1,00,0C,00,
65561220,000002BB,false,Rx,0,5,9A,F6,00,00,F2,00,00,00,
65562144,0000018F,false,Rx,0,5,2D,81,F1,FF,FF,00,00,00,
65563072,000001A1,false,Rx,0,5,B3,CB,00,00,81,00,00,00,
65565016,000001C4,false,Rx,0,7,00,00,00,00,F3,F5,FF,00,
65566044,000001C5,false,Rx,0,7,00,00,00,00,F3,F5,FF,00,
65567072,00000302,false,Rx,0,7,FF,FF,2D,81,FF,FF,FF,00,
65593332,0000012F,false,Rx,0,8,E0,24,86,1C,F2,01,30,09,
65595936,000000A5,false,Rx,0,8,28,F0,9B,B7,79,00,00,F1,
65605236,00000130,false,Rx,0,5,00,F0,FC,FF,FF,00,00,00,
65624488,000002BF,false,Rx,0,3,00,00,00,00,00,00,00,00,
65647736,000001A6,false,Rx,0,8,00,00,00,00,00,00,A0,FB,
65648812,00000281,false,Rx,0,2,25,F3,00,00,00,00,00,00,
65653904,00000297,false,Rx,0,7,17,F5,FC,FC,FC,FC,FC,00,
65655940,000000E4,false,Rx,0,8,64,F1,86,7F,22,FF,7F,8E,
65657024,00000199,false,Rx,0,6,3E,F1,CD,7E,1E,B0,00,00,
65658012,0000019A,false,Rx,0,6,70,F1,93,7E,00,20,00,00,
65658992,0000019F,false,Rx,0,6,23,F1,08,80,00,20,00,00,
65660124,00000289,false,Rx,0,8,A8,F8,E0,E0,E1,00,0C,00,
65661200,000002BB,false,Rx,0,5,6F,F8,00,00,F2,00,00,00,
65662124,000001A1,false,Rx,0,5,08,C1,00,00,81,00,00,00,
65663096,000001C4,false,Rx,0,7,00,00,00,00,FD,F5,FF,00,
65664212,000001C5,false,Rx,0,7,00,00,00,00,FD,F5,FF,00,
65675304,00000328,false,Rx,0,6,40,44,EF,11,0E,22,00,00,
65693344,0000012F,false,Rx,0,8,07,25,86,1C,F1,01,30,09,
65695944,000000A5,false,Rx,0,8,1C,F5,9B,B7,79,00,00,F1,
65705196,00000130,false,Rx,0,5,00,F0,FC,FF,FF,00,00,00,
65719424,000003A0,false,Rx,0,8,FF,FF,C0,FF,FF,FF,FF,FC,
65724864,000002BF,false,Rx,0,3,00,00,00,00,00,00,00,00,
65729640,00000393,false,Rx,0,4,3F,32,00,FE,00,00,00,00,
65747724,000001A6,false,Rx,0,8,00,00,00,00,00,00,30,FD,
65749124,00000281,false,Rx,0,2,25,F3,00,00,00,00,00,00,
65750328,00000173,false,Rx,0,8,13,FA,00,0E,30,00,FE,D0,
65755956,000000E4,false,Rx,0,8,0C,FB,86,7F,22,FF,7F,8E,
65757040,00000199,false,Rx,0,6,6A,FB,D1,7E,1E,B0,00,00,
65758024,0000019A,false,Rx,0,6,00,FB,96,7E,00,20,00,00,
65759000,0000019F,false,Rx,0,6,82,FB,1A,80,00,20,00,00,
65760188,00000289,false,Rx,0,8,12,FA,E0,E0,E1,00,0C,00,
65761264,000002BB,false,Rx,0,5,48,FA,00,00,F2,00,00,00,
65762188,0000018F,false,Rx,0,5,2D,81,F1,FF,FF,00,00,00,
65763116,000001A1,false,Rx,0,5,FC,C6,00,00,81,00,00,00,
65764068,000001C4,false,Rx,0,7,00,00,00,00,07,F6,FF,00,
65765188,000001C5,false,Rx,0,7,00,00,00,00,07,F6,FF,00,
65766340,00000302,false,Rx,0,7,FF,FF,2D,81,FF,FF,FF,00,
65793332,0000012F,false,Rx,0,8,E0,26,86,1C,F1,01,30,09,
65795956,000000A5,false,Rx,0,8,40,FA,9B,B7,79,00,00,F1,
65805204,00000130,false,Rx,0,5,00,F0,FC,FF,FF,00,00,00,
65825324,000002BF,false,Rx,0,3,00,00,00,00,00,00,00,00,
65827828,00000510,false,Rx,0,8,00,00,00,00,FF,FF,00,10,
65847732,000001A6,false,Rx,0,8,00,00,00,00,00,00,C0,FE,
65849084,00000281,false,Rx,0,2,25,F3,00,00,00,00,00,00,
65853720,00000297,false,Rx,0,7,DD,F6,FC,FC,FC,FC,FC,00,
65855924,000000E4,false,Rx,0,8,EA,F6,86,7F,22,FF,7F,8E,
65857012,00000199,false,Rx,0,6,A8,F6,CC,7E,1E,B0,00,00,
65857996,0000019A,false,Rx,0,6,A9,F6,9F,7E,00,20,00,00,
65858980,0000019F,false,Rx,0,6,B5,F6,09,80,00,20,00,00,
65860148,00000289,false,Rx,0,8,C1,FC,E0,E0,E1,00,0C,00,
65861224,000002BB,false,Rx,0,5,21,FC,00,00,F2,00,00,00,
65862148,000001A1,false,Rx,0,5,B3,CB,00,00,81,00,00,00,
65863096,000001C4,false,Rx,0,7,00,00,00,00,11,F6,FF,00,
65864212,000001C5,false,Rx,0,7,00,00,00,00,11,F6,FF,00,
65893304,0000012F,false,Rx,0,8,BD,27,86,1C,F1,01,30,09,
65895928,000000A5,false,Rx,0,8,28,F0,9B,B7,79,00,00,F1,
65905188,00000130,false,Rx,0,5,00,F0,FC,FF,FF,00,00,00,
65925692,000002BF,false,Rx,0,3,00,00,00,00,00,00,00,00,
65947740,000001A6,false,Rx,0,8,00,00,00,00,00,00,50,F0,
65949108,00000281,false,Rx,0,2,25,F3,00,00,00,00,00,00,
65950308,00000173,false,Rx,0,8,7B,F0,00,0E,30,00,FE,D0,
65951516,000002C4,false,Rx,0,8,00,00,FF,64,64,64,00,F0,
65955924,000000E4,false,Rx,0,8,64,F1,86,7F,22,FF,7F,8E,
65957012,00000199,false,Rx,0,6,84,F1,CE,7E,1E,B0,00,00,
65957996,0000019A,false,Rx,0,6,18,F1,9C,7E,00,20,00,00,
65958976,0000019F,false,Rx,0,6,16,F1,F6,7F,00,20,00,00,
65960088,00000289,false,Rx,0,8,7B,FE,E0,E0,E1,00,0C,00,
65961164,000002BB,false,Rx,0,5,06,FE,00,00,F2,00,00,00,
65962084,0000018F,false,Rx,0,5,2D,81,F1,FF,FF,00,00,00,
65963012,000001A1,false,Rx,0,5,08,C1,00,00,81,00,00,00,
65964948,000001C4,false,Rx,0,7,00,00,00,00,1B,F6,FF,00,
65965976,000001C5,false,Rx,0,7,00,00,00,00,1B,F6,FF,00,
65967004,00000302,false,Rx,0,7,FF,FF,2D,81,FF,FF,FF,00,
65993348,0000012F,false,Rx,0,8,5B,28,86,1C,F2,01,30,09,
65995928,000000A5,false,Rx,0,8,1C,F5,9B,B7,79,00,00,F1,
66005232,00000130,false,Rx,0,5,00,F0,FC,FF,FF,00,00,00,
66026100,000002BF,false,Rx,0,3,00,00,00,00,00,00,00,00,
66044872,000005F8,false,Rx,0,8,0D,00,00,00,00,FF,FF,FF,
66047736,000001A6,false,Rx,0,8,00,00,00,00,00,00,E0,F1,
66049144,00000281,false,Rx,0,2,25,F3,00,00,00,00,00,00,
66053504,00000297,false,Rx,0,7,9B,F7,FC,FC,FC,FC,FC,00,
66055948,000000E4,false,Rx,0,8,0C,FB,86,7F,22,FF,7F,8E,
66057032,00000199,false,Rx,0,6,BA,FB,CF,7E,1E,B0,00,00,
66058016,0000019A,false,Rx,0,6,F4,FB,91,7E,00,20,00,00,
66059000,0000019F,false,Rx,0,6,80,FB,08,80,00,20,00,00,
66060168,00000289,false,Rx,0,8,27,F1,E0,E0,E1,00,0C,00,
66061244,000002BB,false,Rx,0,5,6E,F1,00,00,F2,00,00,00,
66062168,000001A1,false,Rx,0,5,FC,C6,00,00,81,00,00,00,
66063124,000001C4,false,Rx,0,7,00,00,00,00,25,F6,FF,00,
66064244,000001C5,false,Rx,0,7,00,00,00,00,25,F6,FF,00,
66093328,0000012F,false,Rx,0,8,06,29,86,1C,F2,01,30,09,
66095940,000000A5,false,Rx,0,8,40,FA,9B,B7,79,00,00,F1,
66105220,00000130,false,Rx,0,5,00,F0,FC,FF,FF,00,00,00,
66126432,000002BF,false,Rx,0,3,00,00,00,00,00,00,00,00,
66145028,00000590,false,Rx,0,8,01,03,80,FF,FF,FF,FF,FF,
66147736,000001A6,false,Rx,0,8,00,00,00,00,00,00,70,F3,
66149148,00000281,false,Rx,0,2,25,F3,00,00,00,00,00,00,
66150336,00000173,false,Rx,0,8,4F,F5,00,0E,30,00,FE,D0,
66155916,000000E4,false,Rx,0,8,EA,F6,86,7F,22,FF,7F,8E,
66157004,00000199,false,Rx,0,6,8F,F6,CE,7E,1E,B0,00,00,
66157988,0000019A,false,Rx,0,6,35,F6,97,7E,00,20,00,00,
66158972,0000019F,false,Rx,0,6,DD,F6,06,80,00,20,00,00,
66160140,00000289,false,Rx,0,8,9D,F3,E0,E0,E1,00,0C,00,
66161216,000002BB,false,Rx,0,5,49,F3,00,00,F2,00,00,00,
66162140,0000018F,false,Rx,0,5,2D,81,F1,FF,FF,00,00,00,
66163068,000001A1,false,Rx,0,5,B3,CB,00,00,81,00,00,00,
66164028,000001C4,false,Rx,0,7,00,00,00,00,2F,F6,FF,00,
66165152,000001C5,false,Rx,0,7,00,00,00,00,2F,F6,FF,00,
66166300,00000302,false,Rx,0,7,FF,FF,2D,81,FF,FF,FF,00,
66193304,0000012F,false,Rx,0,8,5B,2A,86,1C,F1,01,30,09,
66195916,000000A5,false,Rx,0,8,28,F0,9B,B7,79,00,00,F1,
66205428,0000026E,false,Rx,0,8,00,00,00,00,FF,FF,FF,FF,
66206500,00000130,false,Rx,0,5,00,F0,FC,FF,FF,00,00,00,
66226852,000002BF,false,Rx,0,3,00,00,00,00,00,00,00,00,
66247712,000001A6,false,Rx,0,8,00,00,00,00,00,00,00,F5,
66249116,00000281,false,Rx,0,2,25,F3,00,00,00,00,00,00,
66253172,00000297,false,Rx,0,7,5E,F8,FC,FC,FC,FC,FC,00,
66255920,000000E4,false,Rx,0,8,64,F1,86,7F,22,FF,7F,8E,
66257008,00000199,false,Rx,0,6,57,F1,CB,7E,1E,B0,00,00,
66257992,0000019A,false,Rx,0,6,85,F1,9D,7E,00,20,00,00,
66258972,0000019F,false,Rx,0,6,07,F1,11,80,00,20,00,00,
66260132,00000289,false,Rx,0,8,4E,F5,E0,E0,E1,00,0C,00,
66261208,000002BB,false,Rx,0,5,20,F5,00,00,F2,00,00,00,
66262128,000001A1,false,Rx,0,5,08,C1,00,00,81,00,00,00,
66263128,000001C4,false,Rx,0,7,00,00,00,00,39,F6,FF,00,
66264240,000001C5,false,Rx,0,7,00,00,00,00,39,F6,FF,00,
66279716,000003FB,false,Rx,0,6,C7,90,01,10,F1,48,00,00,
66293292,0000012F,false,Rx,0,8,06,2B,86,1C,F1,01,30,09,
66295952,000000A5,false,Rx,0,8,1C,F5,9B,B7,79,00,00,F1,
66297116,000003F9,false,Rx,0,8,FA,17,80,70,7C,44,2F,47,
66305076,00000130,false,Rx,0,5,00,F0,FC,FF,FF,00,00,00,
66327468,000002F9,false,Rx,0,6,00,FF,00,08,FF,F0,00,00,
66328436,000002BF,false,Rx,0,3,00,00,00,00,00,00,00,00,
66341964,000002F7,false,Rx,0,6,02,99,51,11,11,F1,00,00,
66347716,000001A6,false,Rx,0,8,00,00,00,00,00,00,90,F6,
66349152,00000281,false,Rx,0,2,25,F3,00,00,00,00,00,00,
66350356,00000173,false,Rx,0,8,13,FA,00,0E,30,00,FE,D0,
66353292,000002ED,false,Rx,0,3,A4,F3,01,00,00,00,00,00,
66355940,000000E4,false,Rx,0,8,0C,FB,86,7F,22,FF,7F,8E,
66357024,00000199,false,Rx,0,6,BA,FB,CF,7E,1E,B0,00,00,
66358008,0000019A,false,Rx,0,6,68,FB,99,7E,00,20,00,00,
66358988,0000019F,false,Rx,0,6,52,FB,04,80,00,20,00,00,
66360136,00000289,false,Rx,0,8,F4,F7,E0,E0,E1,00,0C,00,
66361216,000002BB,false,Rx,0,5,07,F7,00,00,F2,00,00,00,
66362136,0000018F,false,Rx,0,5,2D,81,F1,FF,FF,00,00,00,
66363064,000001A1,false,Rx,0,5,FC,C6,00,00,81,00,00,00,
66364024,000001C4,false,Rx,0,7,00,00,00,00,43,F6,FF,00,
66365144,000001C5,false,Rx,0,7,00,00,00,00,43,F6,FF,00,
66366156,000001EE,false,Rx,0,2,00,FF,00,00,00,00,00,00,
66367928,000002A6,false,Rx,0,2,00,8C,00,00,00,00,00,00,
66369692,000001D6,false,Rx,0,2,F0,CC,00,00,00,00,00,00,
66370452,000003E6,false,Rx,0,2,FF,FF,00,00,00,00,00,00,
66371228,00000302,false,Rx,0,7,FF,FF,2D,81,FF,FF,FF,00,
66393280,0000012F,false,Rx,0,8,88,2C,86,1C,F1,01,30,09,
66395928,000000A5,false,Rx,0,8,40,FA,9B,B7,79,00,00,F1,
66405072,00000130,false,Rx,0,5,00,F0,FC,FF,FF,00,00,00,
66406372,000005F8,false,Rx,0,8,13,FF,C0,78,FF,FF,FF,FF,
66427628,000002BF,false,Rx,0,3,00,00,00,00,00,00,00,00,
66447712,000001A6,false,Rx,0,8,00,00,00,00,00,00,20,F8,
66448772,000001B9,false,Rx,0,2,00,FF,00,00,00,00,00,00,
66449528,00000281,false,Rx,0,2,25,F3,00,00,00,00,00,00,
66450408,000002C4,false,Rx,0,8,00,00,FF,64,64,64,00,F0,
66453160,00000297,false,Rx,0,7,18,F9,FC,FC,FC,FC,FC,00,
66455900,000000E4,false,Rx,0,8,EA,F6,86,7F,22,FF,7F,8E,
66456988,00000199,false,Rx,0,6,8F,F6,CE,7E,1E,B0,00,00,
66457972,0000019A,false,Rx,0,6,12,F6,95,7E,00,20,00,00,
66458956,0000019F,false,Rx,0,6,2B,F6,13,80,00,20,00,00,
66460084,00000289,false,Rx,0,8,F5,F9,E0,E0,E1,00,0C,00,
66461164,000002BB,false,Rx,0,5,F2,F9,00,00,F2,00,00,00,
66462084,000001A1,false,Rx,0,5,B3,CB,00,00,81,00,00,00,
66463032,000001C4,false,Rx,0,7,00,00,00,00,4D,F6,FF,00,
66464144,000001C5,false,Rx,0,7,00,00,00,00,4D,F6,FF,00,
66467824,00000510,false,Rx,0,8,00,00,00,00,FF,FF,00,10,
66493284,0000012F,false,Rx,0,8,D5,2D,86,1C,F1,01,30,09,
66495908,000000A5,false,Rx,0,8,28,F0,9B,B7,79,00,00,F1,
66505040,00000130,false,Rx,0,5,00,F0,FC,FF,FF,00,00,00,
66528116,000002BF,false,Rx,0,3,00,00,00,00,00,00,00,00,
66529716,00000273,false,Rx,0,8,1D,E1,00,F0,FF,7F,DE,01,
66530924,00000277,false,Rx,0,4,E1,9D,01,FF,00,00,00,00,
66531788,000002CA,false,Rx,0,2,66,70,00,00,00,00,00,00,
66532544,00000228,false,Rx,0,2,00,00,00,00,00,00,00,00,
66547708,000001A6,false,Rx,0,8,00,00,00,00,00,00,B0,F9,
66549116,00000281,false,Rx,0,2,25,F3,00,00,00,00,00,00,
66550316,00000173,false,Rx,0,8,7B,F0,00,0E,30,00,FE,D0,
66555932,000000E4,false,Rx,0,8,64,F1,86,7F,22,FF,7F,8E,
66557016,00000199,false,Rx,0,6,3E,F1,CD,7E,1E,B0,00,00,
66558004,0000019A,false,Rx,0,6,EC,F1,9B,7E,00,20,00,00,
66558984,0000019F,false,Rx,0,6,AF,F1,EE,7F,00,20,00,00,
66559948,00000228,false,Rx,0,2,00,00,00,00,00,00,00,00,
66561728,00000289,false,Rx,0,8,4F,FB,E0,E0,E1,00,0C,00,
66562812,0000018F,false,Rx,0,5,2D,81,F1,FF,FF,00,00,00,
66563740,000001A1,false,Rx,0,5,08,C1,00,00,81,00,00,00,
66564656,000002BB,false,Rx,0,5,D5,FB,00,00,F2,00,00,00,
66565584,000001C4,false,Rx,0,7,00,00,00,00,57,F6,FF,00,
66566612,000001C5,false,Rx,0,7,00,00,00,00,57,F6,FF,00,
66567640,00000273,false,Rx,0,8,1D,E1,00,F0,FF,7F,DE,02,
66568728,00000302,false,Rx,0,7,FF,FF,2D,81,FF,FF,FF,00,
66582172,00000277,false,Rx,0,4,E1,9D,02,FF,00,00,00,00,
66593284,0000012F,false,Rx,0,8,88,2E,86,1C,F2,01,30,09,
66595912,000000A5,false,Rx,0,8,1C,F5,9B,B7,79,00,00,F1,
66603052,00000228,false,Rx,0,2,00,00,00,00,00,00,00,00,
66605200,00000130,false,Rx,0,5,00,F0,FC,FF,FF,00,00,00,
66606340,00000228,false,Rx,0,2,00,00,00,00,00,00,00,00,
66608560,00000228,false,Rx,0,2,00,00,00,00,00,00,00,00,
66611908,00000273,false,Rx,0,8,1D,E1,00,F0,FF,7F,DE,03,
66614460,00000273,false,Rx,0,8,1D,E1,00,F0,FF,7F,DE,04,
66628432,000002BF,false,Rx,0,3,00,00,00,00,00,00,00,00,
66632624,00000277,false,Rx,0,4,E1,9D,04,FF,00,00,00,00,
66642560,000005E7,false,Rx,0,8,99,01,0A,09,01,00,00,00,
66647708,000001A6,false,Rx,0,8,00,00,00,00,00,00,40,FB,
66648784,00000281,false,Rx,0,2,25,F3,00,00,00,00,00,00,
66652740,00000297,false,Rx,0,7,D2,FA,FC,FC,FC,FC,FC,00,
66655928,000000E4,false,Rx,0,8,0C,FB,86,7F,22,FF,7F,8E,
66657012,00000199,false,Rx,0,6,27,FB,CE,7E,1E,B0,00,00,
66657996,0000019A,false,Rx,0,6,D2,FB,9A,7E,00,20,00,00,
66658980,0000019F,false,Rx,0,6,93,FB,FD,7F,00,20,00,00,
66660152,00000289,false,Rx,0,8,9C,FD,E0,E0,E1,00,0C,00,
66661228,000002BB,false,Rx,0,5,BC,FD,00,00,F2,00,00,00,
66662152,000001A1,false,Rx,0,5,FC,C6,00,00,81,00,00,00,
66663108,000001C4,false,Rx,0,7,00,00,00,00,61,F6,FF,00,
66664220,000001C5,false,Rx,0,7,00,00,00,00,61,F6,FF,00,
66675576,00000328,false,Rx,0,6,41,44,EF,11,0E,22,00,00,
66693272,0000012F,false,Rx,0,8,89,20,86,1C,F2,01,30,09,
66695912,000000A5,false,Rx,0,8,40,FA,9B,B7,79,00,00,F1,
66705172,00000130,false,Rx,0,5,00,F0,FC,FF,FF,00,00,00,
66723704,00000590,false,Rx,0,8,01,02,F0,FF,FF,FF,FF,FF,
66724784,000002F0,false,Rx,0,3,34,30,FF,00,00,00,00,00,
66728900,000002BF,false,Rx,0,3,00,00,00,00,00,00,00,00,
66747704,000001A6,false,Rx,0,8,00,00,00,00,00,00,D0,FC,
66749064,00000281,false,Rx,0,2,25,F3,00,00,00,00,00,00,
66750256,00000173,false,Rx,0,8,4F,F5,00,0E,30,00,FE,D0,
66755896,000000E4,false,Rx,0,8,EA,F6,86,7F,22,FF,7F,8E,
66756984,00000199,false,Rx,0,6,8F,F6,CE,7E,1E,B0,00,00,
66757968,0000019A,false,Rx,0,6,12,F6,95,7E,00,20,00,00,
66758948,0000019F,false,Rx,0,6,FB,F6,0D,80,00,20,00,00,
66760088,00000289,false,Rx,0,8,7A,F0,E0,E0,E1,00,0C,00,
66761164,000002BB,false,Rx,0,5,F3,F0,00,00,F2,00,00,00,
66762088,0000018F,false,Rx,0,5,2D,81,F1,FF,FF,00,00,00,
66763016,000001A1,false,Rx,0,5,B3,CB,00,00,81,00,00,00,
66764956,000001C4,false,Rx,0,7,00,00,00,00,6B,F6,FF,00,
66765984,000001C5,false,Rx,0,7,00,00,00,00,6B,F6,FF,00,
66767012,00000302,false,Rx,0,7,FF,FF,2D,81,FF,FF,FF,00,
66793260,0000012F,false,Rx,0,8,6E,21,86,1C,F1,01,30,09,
66794336,00000277,false,Rx,0,4,E1,9D,04,FF,00,00,00,00,
66795900,000000A5,false,Rx,0,8,28,F0,9B,B7,79,00,00,F1,
66805152,00000130,false,Rx,0,5,00,F0,FC,FF,FF,00,00,00,
66829428,000002BF,false,Rx,0,3,00,00,00,00,00,00,00,00,
66847696,000001A6,false,Rx,0,8,00,00,00,00,00,00,60,FE,
66849048,00000281,false,Rx,0,2,25,F3,00,00,00,00,00,00,
66852584,00000297,false,Rx,0,7,94,FB,FC,FC,FC,FC,FC,00,
66855888,000000E4,false,Rx,0,8,64,F1,86,7F,22,FF,7F,8E,
66856980,00000199,false,Rx,0,6,3E,F1,CD,7E,1E,B0,00,00,
66857960,0000019A,false,Rx,0,6,CB,F1,99,7E,00,20,00,00,
66858940,0000019F,false,Rx,0,6,F1,F1,04,80,00,20,00,00,
66860124,00000289,false,Rx,0,8,C0,F2,E0,E0,E1,00,0C,00,
66861200,000002BB,false,Rx,0,5,D4,F2,00,00,F2,00,00,00,
66862124,000001A1,false,Rx,0,5,08,C1,00,00,81,00,00,00,
66863076,000001C4,false,Rx,0,7,00,00,00,00,75,F6,FF,00,
66864212,000001C5,false,Rx,0,7,00,00,00,00,75,F6,FF,00,
66893256,0000012F,false,Rx,0,8,89,22,86,1C,F1,01,30,09,
66895904,000000A5,false,Rx,0,8,1C,F5,9B,B7,79,00,00,F1,
66905136,00000130,false,Rx,0,5,00,F0,FC,FF,FF,00,00,00,
66929772,000002BF,false,Rx,0,3,00,00,00,00,00,00,00,00,
66947724,000001A6,false,Rx,0,8,00,00,00,00,00,00,F0,FF,
66949144,00000281,false,Rx,0,2,25,F3,00,00,00,00,00,00,
66950348,00000173,false,Rx,0,8,13,FA,00,0E,30,00,FE,D0,
66951560,000002C4,false,Rx,0,8,00,00,FF,64,64,64,00,F0,
66955920,000000E4,false,Rx,0,8,0C,FB,86,7F,22,FF,7F,8E,
66957004,00000199,false,Rx,0,6,27,FB,CE,7E,1E,B0,00,00,
66957988,0000019A,false,Rx,0,6,4F,FB,9B,7E,00,20,00,00,
66958968,0000019F,false,Rx,0,6,67,FB,FA,7F,00,20,00,00,
66959944,00000277,false,Rx,0,4,E1,9D,04,FF,00,00,00,00,
66961844,00000289,false,Rx,0,8,13,F4,E0,E0,E1,00,0C,00,
66962920,0000018F,false,Rx,0,5,2D,81,F1,FF,FF,00,00,00,
66963848,000001A1,false,Rx,0,5,FC,C6,00,00,81,00,00,00,
66964772,000002BB,false,Rx,0,5,BD,F4,00,00,F2,00,00,00,
66965696,000001C4,false,Rx,0,7,00,00,00,00,7F,F6,FF,00,
66966728,000001C5,false,Rx,0,7,00,00,00,00,7F,F6,FF,00,
66967756,00000302,false,Rx,0,7,FF,FF,2D,81,FF,FF,FF,00,
66993248,0000012F,false,Rx,0,8,D4,23,86,1C,F1,01,30,09,
66995904,000000A5,false,Rx,0,8,40,FA,9B,B7,79,00,00,F1,
67005124,00000130,false,Rx,0,5,00,F0,FC,FF,FF,00,00,00,
67030112,000002BF,false,Rx,0,3,00,00,00,00,00,00,00,00,
67047672,000001A6,false,Rx,0,8,00,00,00,00,00,00,80,F1,
67049104,00000281,false,Rx,0,2,25,F3,00,00,00,00,00,00,
67052240,00000297,false,Rx,0,7,5B,FC,FC,FC,FC,FC,FC,00,
67055884,000000E4,false,Rx,0,8,EA,F6,86,7F,22,FF,7F,8E,
67056972,00000199,false,Rx,0,6,8F,F6,CE,7E,1E,B0,00,00,
67057956,0000019A,false,Rx,0,6,7A,F6,9A,7E,00,20,00,00,
67058936,0000019F,false,Rx,0,6,A7,F6,F5,7F,00,20,00,00,
67060084,00000289,false,Rx,0,8,A9,F6,E0,E0,E1,00,0C,00,
67061160,000002BB,false,Rx,0,5,9A,F6,00,00,F2,00,00,00,
67062084,000001A1,false,Rx,0,5,B3,CB,00,00,81,00,00,00,
67063020,000001C4,false,Rx,0,7,00,00,00,00,89,F6,FF,00,
67064132,000001C5,false,Rx,0,7,00,00,00,00,89,F6,FF,00,
67093284,0000012F,false,Rx,0,8,E0,24,86,1C,F2,01,30,09,
67095884,000000A5,false,Rx,0,8,28,F0,9B,B7,79,00,00,F1,
67105176,00000130,false,Rx,0,5,00,F0,FC,FF,FF,00,00,00,
67107808,00000510,false,Rx,0,8,00,00,00,00,FF,FF,00,10,
67130556,000002BF,false,Rx,0,3,00,00,00,00,00,00,00,00,
67147684,000001A6,false,Rx,0,8,00,00,00,00,00,00,10,F3,
67149056,00000281,false,Rx,0,2,25,F3,00,00,00,00,00,00,
67150256,00000173,false,Rx,0,8,7B,F0,00,0E,30,00,FE,D0,
67155876,000000E4,false,Rx,0,8,64,F1,86,7F,22,FF,7F,8E,
67156964,00000199,false,Rx,0,6,19,F1,CF,7E,1E,B0,00,00,
67157948,0000019A,false,Rx,0,6,56,F1,98,7E,00,20,00,00,
67158928,0000019F,false,Rx,0,6,8B,F1,F7,7F,00,20,00,00,
67160096,00000289,false,Rx,0,8,A8,F8,E0,E0,E1,00,0C,00,
67161172,000002BB,false,Rx,0,5,6F,F8,00,00,F2,00,00,00,
67162088,0000018F,false,Rx,0,5,2D,81,F1,FF,FF,00,00,00,
67163016,000001A1,false,Rx,0,5,08,C1,00,00,81,00,00,00,
67163976,000001C4,false,Rx,0,7,00,00,00,00,93,F6,FF,00,
67165088,000001C5,false,Rx,0,7,00,00,00,00,93,F6,FF,00,
67166244,00000302,false,Rx,0,7,FF,FF,2D,81,FF,FF,FF,00,
67193228,0000012F,false,Rx,0,8,BD,25,86,1C,F2,01,30,09,
67195888,000000A5,false,Rx,0,8,1C,F5,9B,B7,79,00,00,F1,
67205144,00000130,false,Rx,0,5,00,F0,FC,FF,FF,00,00,00,
67231100,000002BF,false,Rx,0,3,00,00,00,00,00,00,00,00,
67247676,000001A6,false,Rx,0,8,00,00,00,00,00,00,A0,F4,
67248764,00000281,false,Rx,0,2,25,F3,00,00,00,00,00,00,
67252024,00000297,false,Rx,0,7,1D,FD,FC,FC,FC,FC,FC,00,
67255908,000000E4,false,Rx,0,8,0C,FB,86,7F,22,FF,7F,8E,
67256992,00000199,false,Rx,0,6,27,FB,CE,7E,1E,B0,00,00,
67257976,0000019A,false,Rx,0,6,D2,FB,9A,7E,00,20,00,00,
67258960,0000019F,false,Rx,0,6,81,FB,01,80,00,20,00,00,
67260140,00000289,false,Rx,0,8,12,FA,E0,E0,E1,00,0C,00,
67261216,000002BB,false,Rx,0,5,48,FA,00,00,F2,00,00,00,
67262140,000001A1,false,Rx,0,5,FC,C6,00,00,81,00,00,00,
67263088,000001C4,false,Rx,0,7,00,00,00,00,9D,F6,FF,00,
67264196,000001C5,false,Rx,0,7,00,00,00,00,9D,F6,FF,00,
67279692,000003FB,false,Rx,0,6,C7,90,01,10,F1,48,00,00,
67293256,0000012F,false,Rx,0,8,E0,26,86,1C,F1,01,30,09,
67295900,000000A5,false,Rx,0,8,40,FA,9B,B7,79,00,00,F1,
67297240,000003F9,false,Rx,0,8,A6,18,80,70,7C,44,2F,47,
67305020,00000130,false,Rx,0,5,00,F0,FC,FF,FF,00,00,00,
67331708,000002F9,false,Rx,0,6,00,FF,00,08,FF,F0,00,00,
67332668,000002BF,false,Rx,0,3,00,00,00,00,00,00,00,00,
67341932,000002F7,false,Rx,0,6,02,99,51,11,11,F1,00,00,
67347660,000001A6,false,Rx,0,8,00,00,00,00,00,00,30,F6,
67349048,00000281,false,Rx,0,2,25,F3,00,00,00,00,00,00,
67350240,00000173,false,Rx,0,8,4F,F5,00,0E,30,00,FE,D0,
67353212,000002ED,false,Rx,0,3,5D,F4,01,00,00,00,00,00,
67355868,000000E4,false,Rx,0,8,EA,F6,86,7F,22,FF,7F,8E,
67356956,00000199,false,Rx,0,6,35,F6,CD,7E,1E,B0,00,00,
67357940,0000019A,false,Rx,0,6,C0,F6,99,7E,00,20,00,00,
67358920,0000019F,false,Rx,0,6,DD,F6,06,80,00,20,00,00,
67360112,00000289,false,Rx,0,8,C1,FC,E0,E0,E1,00,0C,00,
67361188,000002BB,false,Rx,0,5,21,FC,00,00,F2,00,00,00,
67362112,0000018F,false,Rx,0,5,2D,81,F1,FF,FF,00,00,00,
67363040,000001A1,false,Rx,0,5,B3,CB,00,00,81,00,00,00,
67363972,000001C4,false,Rx,0,7,00,00,00,00,A7,F6,FF,00,
67365080,000001C5,false,Rx,0,7,00,00,00,00,A7,F6,FF,00,
67366092,000001EE,false,Rx,0,2,00,FF,00,00,00,00,00,00,
67367856,000002A6,false,Rx,0,2,00,94,00,00,00,00,00,00,
67368608,000001D6,false,Rx,0,2,F0,CC,00,00,00,00,00,00,
67369372,000001EA,false,Rx,0,2,FF,FF,00,00,00,00,00,00,
67370132,000003E6,false,Rx,0,2,FF,FF,00,00,00,00,00,00,
67370912,00000302,false,Rx,0,7,FF,FF,2D,81,FF,FF,FF,00,
67393224,0000012F,false,Rx,0,8,BD,27,86,1C,F1,01,30,09,
67395872,000000A5,false,Rx,0,8,28,F0,9B,B7,79,00,00,F1,
67405016,00000130,false,Rx,0,5,00,F0,FC,FF,FF,00,00,00,
67410652,000005F8,false,Rx,0,8,13,FF,C0,78,FF,FF,FF,FF,
67431856,000002BF,false,Rx,0,3,00,00,00,00,00,00,00,00,
67447672,000001A6,false,Rx,0,8,00,00,00,00,00,00,C0,F7,
67448736,000001B9,false,Rx,0,2,00,FF,00,00,00,00,00,00,
67449488,00000281,false,Rx,0,2,25,F3,00,00,00,00,00,00,
67450376,000002C4,false,Rx,0,8,00,00,FF,64,64,64,00,F0,
67451872,00000297,false,Rx,0,7,D7,FE,FC,FC,FC,FC,FC,00,
67455868,000000E4,false,Rx,0,8,64,F1,86,7F,22,FF,7F,8E,
67456952,00000199,false,Rx,0,6,19,F1,CF,7E,1E,B0,00,00,
67457940,0000019A,false,Rx,0,6,19,F1,95,7E,00,20,00,00,
67458920,0000019F,false,Rx,0,6,4B,F1,07,80,00,20,00,00,
67460076,00000289,false,Rx,0,8,7B,FE,E0,E0,E1,00,0C,00,
67461160,000002BB,false,Rx,0,5,06,FE,00,00,F2,00,00,00,
67462072,000001A1,false,Rx,0,5,08,C1,00,00,81,00,00,00,
67463060,000001C4,false,Rx,0,7,00,00,00,00,B1,F6,FF,00,
67464172,000001C5,false,Rx,0,7,00,00,00,00,B1,F6,FF,00,
67493216,0000012F,false,Rx,0,8,E1,28,86,1C,F1,01,30,09,
67495876,000000A5,false,Rx,0,8,1C,F5,9B,B7,79,00,00,F1,
67504996,00000130,false,Rx,0,5,00,F0,FC,FF,FF,00,00,00,
67531428,000002CA,false,Rx,0,2,66,70,00,00,00,00,00,00,
67532280,000002BF,false,Rx,0,3,00,00,00,00,00,00,00,00,
67547692,000001A6,false,Rx,0,8,00,00,00,00,00,00,50,F9,
67549080,00000281,false,Rx,0,2,25,F3,00,00,00,00,00,00,
67550296,00000173,false,Rx,0,8,13,FA,00,0E,30,00,FE,D0,
67555892,000000E4,false,Rx,0,8,0C,FB,86,7F,22,FF,7F,8E,
67556972,00000199,false,Rx,0,6,27,FB,CE,7E,1E,B0,00,00,
67557960,0000019A,false,Rx,0,6,68,FB,99,7E,00,20,00,00,
67558940,0000019F,false,Rx,0,6,3A,FB,0B,80,00,20,00,00,
67560092,00000289,false,Rx,0,8,27,F1,E0,E0,E1,00,0C,00,
67561172,000002BB,false,Rx,0,5,6E,F1,00,00,F2,00,00,00,
67562092,0000018F,false,Rx,0,5,2D,81,F1,FF,FF,00,00,00,
67563024,000001A1,false,Rx,0,5,FC,C6,00,00,81,00,00,00,
67563976,000001C4,false,Rx,0,7,00,00,00,00,BB,F6,FF,00,
67565084,000001C5,false,Rx,0,7,00,00,00,00,BB,F6,FF,00,
67566236,00000302,false,Rx,0,7,FF,FF,2D,81,FF,FF,FF,00,
67593256,0000012F,false,Rx,0,8,BC,29,86,1C,F1,01,30,09,
67595880,000000A5,false,Rx,0,8,40,FA,9B,B7,79,00,00,F1,
67604992,00000130,false,Rx,0,5,00,F0,FC,FF,FF,00,00,00,
67632672,000002BF,false,Rx,0,3,00,00,00,00,00,00,00,00,
67647684,000001A6,false,Rx,0,8,00,00,00,00,00,00,E0,FA,
67648744,00000281,false,Rx,0,2,25,F3,00,00,00,00,00,00,
67651576,00000297,false,Rx,0,7,54,F0,FC,FC,FC,FC,FC,00,
67655860,000000E4,false,Rx,0,8,EA,F6,86,7F,22,FF,7F,8E,
67656948,00000199,false,Rx,0,6,8B,F6,D0,7E,1D,B0,00,00,
67657932,0000019A,false,Rx,0,6,E7,F6,9B,7E,00,20,00,00,
67658912,0000019F,false,Rx,0,6,29,F6,01,80,00,20,00,00,
67660072,00000289,false,Rx,0,8,9D,F3,E0,E0,E1,00,0C,00,
67661152,000002BB,false,Rx,0,5,49,F3,00,00,F2,00,00,00,
67662072,000001A1,false,Rx,0,5,B3,CB,00,00,81,00,00,00,
67663032,000001C4,false,Rx,0,7,00,00,00,00,C5,F6,FF,00,
67664144,000001C5,false,Rx,0,7,00,00,00,00,C5,F6,FF,00,
67674988,00000328,false,Rx,0,6,42,44,EF,11,0E,22,00,00,
67693204,0000012F,false,Rx,0,8,E1,2A,86,1C,F2,01,30,09,
67695860,000000A5,false,Rx,0,8,28,F0,9B,B7,79,00,00,F1,
67705128,00000130,false,Rx,0,5,00,F0,FC,FF,FF,00,00,00,
67733192,000002BF,false,Rx,0,3,00,00,00,00,00,00,00,00,
67747680,000001A6,false,Rx,0,8,00,00,00,00,00,00,70,FC,
67748932,00000510,false,Rx,0,8,00,00,00,00,FF,FF,00,10,
67750108,00000173,false,Rx,0,8,7B,F0,00,0E,30,00,FE,D0,
67751176,00000281,false,Rx,0,2,25,F3,00,00,00,00,00,00,
67755860,000000E4,false,Rx,0,8,64,F1,86,7F,22,FF,7F,8E,
67756944,00000199,false,Rx,0,6,EA,F1,CD,7E,1D,B0,00,00,
67757928,0000019A,false,Rx,0,6,56,F1,98,7E,00,20,00,00,
67758912,0000019F,false,Rx,0,6,9B,F1,19,80,00,20,00,00,
67760048,00000289,false,Rx,0,8,4E,F5,E0,E0,E1,00,0C,00,
67761128,000002BB,false,Rx,0,5,20,F5,00,00,F2,00,00,00,
67762048,0000018F,false,Rx,0,5,2D,81,F1,FF,FF,00,00,00,
67762980,000001A1,false,Rx,0,5,08,C1,00,00,81,00,00,00,
67763956,000001C4,false,Rx,0,7,00,00,00,00,CF,F6,FF,00,
67765088,000001C5,false,Rx,0,7,00,00,00,00,CF,F6,FF,00,
67766236,00000302,false,Rx,0,7,FF,FF,2D,81,FF,FF,FF,00,
67793188,0000012F,false,Rx,0,8,BC,2B,86,1C,F2,01,30,09,
67795860,000000A5,false,Rx,0,8,1C,F5,9B,B7,79,00,00,F1,
67805100,00000130,false,Rx,0,5,00,F0,FC,FF,FF,00,00,00,
67833656,000002BF,false,Rx,0,3,00,00,00,00,00,00,00,00,
67847672,000001A6,false,Rx,0,8,00,00,00,00,00,00,00,FE,
67849040,00000281,false,Rx,0,2,25,F3,00,00,00,00,00,00,
67851304,00000297,false,Rx,0,7,12,F1,FC,FC,FC,FC,FC,00,
67855880,000000E4,false,Rx,0,8,0C,FB,86,7F,22,FF,7F,8E,
67856964,00000199,false,Rx,0,6,F3,FB,CE,7E,1D,B0,00,00,
67857952,0000019A,false,Rx,0,6,68,FB,99,7E,00,20,00,00,
67858932,0000019F,false,Rx,0,6,29,FB,FE,7F,00,20,00,00,
67860072,00000289,false,Rx,0,8,F4,F7,E0,E0,E1,00,0C,00,
67861148,000002BB,false,Rx,0,5,07,F7,00,00,F2,00,00,00,
67862068,000001A1,false,Rx,0,5,FC,C6,00,00,81,00,00,00,
67863048,000001C4,false,Rx,0,7,00,00,00,00,D9,F6,FF,00,
67864180,000001C5,false,Rx,0,7,00,00,00,00,D9,F6,FF,00,
67893204,0000012F,false,Rx,0,8,88,2C,86,1C,F1,01,30,09,
67895872,000000A5,false,Rx,0,8,40,FA,9B,B7,79,00,00,F1,
67905084,00000130,false,Rx,0,5,00,F0,FC,FF,FF,00,00,00,
67934044,000002BF,false,Rx,0,3,00,00,00,00,00,00,00,00,
67947680,000001A6,false,Rx,0,8,00,00,00,00,00,00,90,FF,
67949024,00000281,false,Rx,0,2,25,F3,00,00,00,00,00,00,
67950212,00000173,false,Rx,0,8,4F,F5,00,0E,30,00,FE,D0,
67951424,000002C4,false,Rx,0,8,00,00,FF,64,64,64,00,F0,
67955860,000000E4,false,Rx,0,8,EA,F6,86,7F,22,FF,7F,8E,
67956948,00000199,false,Rx,0,6,8B,F6,D0,7E,1D,B0,00,00,
67957932,0000019A,false,Rx,0,6,E7,F6,9B,7E,00,20,00,00,
67958912,0000019F,false,Rx,0,6,A6,F6,FC,7F,00,20,00,00,
67960048,00000289,false,Rx,0,8,F5,F9,E0,E0,E1,00,0C,00,
67961124,000002BB,false,Rx,0,5,F2,F9,00,00,F2,00,00,00,
67962048,0000018F,false,Rx,0,5,2D,81,F1,FF,FF,00,00,00,
67962976,000001A1,false,Rx,0,5,B3,CB,00,00,81,00,00,00,
67963928,000001C4,false,Rx,0,7,00,00,00,00,E3,F6,FF,00,
67965060,000001C5,false,Rx,0,7,00,00,00,00,E3,F6,FF,00,
67966204,00000302,false,Rx,0,7,FF,FF,2D,81,FF,FF,FF,00,
67993208,0000012F,false,Rx,0,8,D5,2D,86,1C,F1,01,30,09,
67995848,000000A5,false,Rx,0,8,28,F0,9B,B7,79,00,00,F1,
68005076,00000130,false,Rx,0,5,00,F0,FC,FF,FF,00,00,00,
68034436,000002BF,false,Rx,0,3,00,00,00,00,00,00,00,00,
68047668,000001A6,false,Rx,0,8,00,00,00,00,00,00,20,F1,
68049052,00000281,false,Rx,0,2,25,F3,00,00,00,00,00,00,
68051228,00000297,false,Rx,0,7,D8,F2,FC,FC,FC,FC,FC,00,
68055844,000000E4,false,Rx,0,8,64,F1,86,7F,22,FF,7F,8E,
68056932,00000199,false,Rx,0,6,50,F1,CE,7E,1D,B0,00,00,
68057916,0000019A,false,Rx,0,6,CB,F1,99,7E,00,20,00,00,
68058896,0000019F,false,Rx,0,6,F0,F1,0D,80,00,20,00,00,
68060040,00000289,false,Rx,0,8,4F,FB,E0,E0,E1,00,0C,00,
68061116,000002BB,false,Rx,0,5,D5,FB,00,00,F2,00,00,00,
68062040,000001A1,false,Rx,0,5,08,C1,00,00,81,00,00,00,
68062996,000001C4,false,Rx,0,7,00,00,00,00,ED,F6,FF,00,
68064108,000001C5,false,Rx,0,7,00,00,00,00,ED,F6,FF,00,
68093200,0000012F,false,Rx,0,8,32,2E,86,1C,F1,01,30,09,
68095864,000000A5,false,Rx,0,8,1C,F5,9B,B7,79,00,00,F1,
68105052,00000130,false,Rx,0,5,00,F0,FC,FF,FF,00,00,00,
68134884,000002BF,false,Rx,0,3,00,00,00,00,00,00,00,00,
68147628,000001A6,false,Rx,0,8,00,00,00,00,00,00,B0,F2,
68149092,00000281,false,Rx,0,2,25,F3,00,00,00,00,00,00,
68150304,00000173,false,Rx,0,8,13,FA,00,0E,30,00,FE,D0,
68155868,000000E4,false,Rx,0,8,0C,FB,86,7F,22,FF,7F,8E,
68156952,00000199,false,Rx,0,6,6E,FB,CF,7E,1D,B0,00,00,
68157936,0000019A,false,Rx,0,6,F5,FB,98,7E,00,20,00,00,
68158920,0000019F,false,Rx,0,6,64,FB,E1,7F,00,20,00,00,
68160100,00000289,false,Rx,0,8,9C,FD,E0,E0,E1,00,0C,00,
68161176,000002BB,false,Rx,0,5,BC,FD,00,00,F2,00,00,00,
68162100,0000018F,false,Rx,0,5,2D,81,F1,FF,FF,00,00,00,
68163028,000001A1,false,Rx,0,5,FC,C6,00,00,81,00,00,00,
68163984,000001C4,false,Rx,0,7,00,00,00,00,F7,F6,FF,00,
68165096,000001C5,false,Rx,0,7,00,00,00,00,F7,F6,FF,00,
68166244,00000302,false,Rx,0,7,FF,FF,2D,81,FF,FF,FF,00,
68193200,0000012F,false,Rx,0,8,89,20,86,1C,F2,01,30,09,
68195860,000000A5,false,Rx,0,8,40,FA,9B,B7,79,00,00,F1,
68205472,0000026E,false,Rx,0,8,00,00,00,00,FF,FF,FF,FF,
68206544,00000130,false,Rx,0,5,00,F0,FC,FF,FF,00,00,00,
68235368,000002BF,false,Rx,0,3,00,00,00,00,00,00,00,00,
68247644,000001A6,false,Rx,0,8,00,00,00,00,00,00,40,F4,
68248736,00000281,false,Rx,0,2,25,F3,00,00,00,00,00,00,
68251204,00000297,false,Rx,0,7,9E,F3,FC,FC,FC,FC,FC,00,
68255844,000000E4,false,Rx,0,8,EA,F6,86,7F,22,FF,7F,8E,
68256928,00000199,false,Rx,0,6,8B,F6,D0,7E,1D,B0,00,00,
68257912,0000019A,false,Rx,0,6,C0,F6,99,7E,00,20,00,00,
68258896,0000019F,false,Rx,0,6,CF,F6,FA,7F,00,20,00,00,
68260040,00000289,false,Rx,0,8,7A,F0,E0,E0,E1,00,0C,00,
68261120,000002BB,false,Rx,0,5,F3,F0,00,00,F2,00,00,00,
68262040,000001A1,false,Rx,0,5,B3,CB,00,00,81,00,00,00,
68263056,000001C4,false,Rx,0,7,00,00,00,00,01,F7,FF,00,
68264188,000001C5,false,Rx,0,7,00,00,00,00,01,F7,FF,00,
68279652,000003FB,false,Rx,0,6,C7,90,01,10,F1,48,00,00,
68293164,0000012F,false,Rx,0,8,D4,21,86,1C,F2,01,30,09,
68295864,000000A5,false,Rx,0,8,28,F0,9B,B7,79,00,00,F1,
68297216,000003F9,false,Rx,0,8,FB,19,80,70,7C,44,2F,47,
68305056,00000130,false,Rx,0,5,00,F0,FC,FF,FF,00,00,00,
68336016,000002F9,false,Rx,0,6,00,FF,00,08,FF,F0,00,00,
68336984,000002BF,false,Rx,0,3,00,00,00,00,00,00,00,00,
68341904,000002F7,false,Rx,0,6,02,99,51,11,11,F1,00,00,
68347648,000001A6,false,Rx,0,8,00,00,00,00,00,00,D0,F5,
68349076,00000281,false,Rx,0,2,25,F3,00,00,00,00,00,00,
68350276,00000173,false,Rx,0,8,7B,F0,00,0E,30,00,FE,D0,
68353168,000002ED,false,Rx,0,3,11,F5,01,00,00,00,00,00,
68355836,000000E4,false,Rx,0,8,64,F1,86,7F,22,FF,7F,8E,
68356924,00000199,false,Rx,0,6,CD,F1,CF,7E,1D,B0,00,00,
68357908,0000019A,false,Rx,0,6,EC,F1,9B,7E,00,20,00,00,
68358888,0000019F,false,Rx,0,6,D6,F1,06,80,00,20,00,00,
68360008,00000289,false,Rx,0,8,C0,F2,E0,E0,E1,00,0C,00,
68361088,000002BB,false,Rx,0,5,D4,F2,00,00,F2,00,00,00,
68362008,0000018F,false,Rx,0,5,2D,81,F1,FF,FF,00,00,00,
68362940,000001A1,false,Rx,0,5,08,C1,00,00,81,00,00,00,
68363900,000001C4,false,Rx,0,7,00,00,00,00,0B,F7,FF,00,
68365040,000001C5,false,Rx,0,7,00,00,00,00,0B,F7,FF,00,
68366048,000001EE,false,Rx,0,2,00,FF,00,00,00,00,00,00,
68367820,000002A6,false,Rx,0,2,00,9C,00,00,00,00,00,00,
68369588,000001D6,false,Rx,0,2,F0,CC,00,00,00,00,00,00,
68370344,000003E6,false,Rx,0,2,FF,FF,00,00,00,00,00,00,
68371124,00000302,false,Rx,0,7,FF,FF,2D,81,FF,FF,FF,00,
68387792,00000510,false,Rx,0,8,00,00,00,00,FF,FF,00,10,
68393176,0000012F,false,Rx,0,8,89,22,86,1C,F1,01,30,09,
68395848,000000A5,false,Rx,0,8,1C,F5,9B,B7,79,00,00,F1,
68404948,00000130,false,Rx,0,5,00,F0,FC,FF,FF,00,00,00,
68414928,000005F8,false,Rx,0,8,13,FF,C0,78,FF,FF,FF,FF,
68436140,000002BF,false,Rx,0,3,00,00,00,00,00,00,00,00,
68447640,000001A6,false,Rx,0,8,00,00,00,00,00,00,60,F7,
68448700,000001B9,false,Rx,0,2,00,FF,00,00,00,00,00,00,
68449452,00000281,false,Rx,0,2,25,F3,00,00,00,00,00,00,
68450372,000002C4,false,Rx,0,8,00,00,FF,64,64,64,00,F0,
68451460,00000297,false,Rx,0,7,51,F4,FC,FC,FC,FC,FC,00,
68455864,000000E4,false,Rx,0,8,0C,FB,86,7F,22,FF,7F,8E,
68456948,00000199,false,Rx,0,6,04,FB,D2,7E,1D,B0,00,00,
68457932,0000019A,false,Rx,0,6,9D,FB,97,7E,00,20,00,00,
68458912,0000019F,false,Rx,0,6,52,FB,04,80,00,20,00,00,
68460088,00000289,false,Rx,0,8,13,F4,E0,E0,E1,00,0C,00,
68461164,000002BB,false,Rx,0,5,BD,F4,00,00,F2,00,00,00,
68462088,000001A1,false,Rx,0,5,FC,C6,00,00,81,00,00,00,
68463060,000001C4,false,Rx,0,7,00,00,00,00,15,F7,FF,00,
68464188,000001C5,false,Rx,0,7,00,00,00,00,15,F7,FF,00,
68493152,0000012F,false,Rx,0,8,D4,23,86,1C,F1,01,30,09,
68495852,000000A5,false,Rx,0,8,40,FA,9B,B7,79,00,00,F1,
68504956,00000130,false,Rx,0,5,00,F0,FC,FF,FF,00,00,00,
68531356,000002CA,false,Rx,0,2,66,70,00,00,00,00,00,00,
68536508,000002BF,false,Rx,0,3,00,00,00,00,00,00,00,00,
68547664,000001A6,false,Rx,0,8,00,00,00,00,00,00,F0,F8,
68549064,00000281,false,Rx,0,2,25,F3,00,00,00,00,00,00,
68550252,00000173,false,Rx,0,8,4F,F5,00,0E,30,00,FE,D0,
68555832,000000E4,false,Rx,0,8,EA,F6,86,7F,22,FF,7F,8E,
68556920,00000199,false,Rx,0,6,8B,F6,D0,7E,1D,B0,00,00,
68557904,0000019A,false,Rx,0,6,35,F6,97,7E,00,20,00,00,
68558884,0000019F,false,Rx,0,6,0E,F6,03,80,00,20,00,00,
68560028,00000289,false,Rx,0,8,A9,F6,E0,E0,E1,00,0C,00,
68561104,000002BB,false,Rx,0,5,9A,F6,00,00,F2,00,00,00,
68562028,0000018F,false,Rx,0,5,2D,81,F1,FF,FF,00,00,00,
68562956,000001A1,false,Rx,0,5,B3,CB,00,00,81,00,00,00,
68563916,000001C4,false,Rx,0,7,00,00,00,00,1F,F7,FF,00,
68565072,000001C5,false,Rx,0,7,00,00,00,00,1F,F7,FF,00,
68566220,00000302,false,Rx,0,7,FF,FF,2D,81,FF,FF,FF,00,
68593152,0000012F,false,Rx,0,8,5A,24,86,1C,F1,01,30,09,
68595840,000000A5,false,Rx,0,8,28,F0,9B,B7,79,00,00,F1,
68604948,00000130,false,Rx,0,5,00,F0,FC,FF,FF,00,00,00,
68637048,000002BF,false,Rx,0,3,00,00,00,00,00,00,00,00,
68647636,000001A6,false,Rx,0,8,00,00,00,00,00,00,80,FA,
68649068,00000281,false,Rx,0,2,25,F3,00,00,00,00,00,00,
68650808,00000297,false,Rx,0,7,17,F5,FC,FC,FC,FC,FC,00,
68655820,000000E4,false,Rx,0,8,64,F1,86,7F,22,FF,7F,8E,
68656908,00000199,false,Rx,0,6,50,F1,CE,7E,1D,B0,00,00,
68657892,0000019A,false,Rx,0,6,EC,F1,9B,7E,00,20,00,00,
68658876,0000019F,false,Rx,0,6,49,F1,15,80,00,20,00,00,
68660012,00000289,false,Rx,0,8,A8,F8,E0,E0,E1,00,0C,00,
68661088,000002BB,false,Rx,0,5,6F,F8,00,00,F2,00,00,00,
68662012,000001A1,false,Rx,0,5,08,C1,00,00,81,00,00,00,
68662980,000001C4,false,Rx,0,7,00,00,00,00,29,F7,FF,00,
68664100,000001C5,false,Rx,0,7,00,00,00,00,29,F7,FF,00,
68665304,000005E7,false,Rx,0,8,99,01,0A,0A,01,00,00,00,
68674908,00000328,false,Rx,0,6,43,44,EF,11,0E,22,00,00,
68693256,0000012F,false,Rx,0,8,07,25,86,1C,F1,01,30,09,
68695836,000000A5,false,Rx,0,8,1C,F5,9B,B7,79,00,00,F1,
68704916,00000130,false,Rx,0,5,00,F0,FC,FF,FF,00,00,00,
68737368,000002BF,false,Rx,0,3,00,00,00,00,00,00,00,00,
68747636,000001A6,false,Rx,0,8,00,00,00,00,00,00,10,FC,
68749032,00000281,false,Rx,0,2,25,F3,00,00,00,00,00,00,
68750244,00000173,false,Rx,0,8,13,FA,00,0E,30,00,FE,D0,
68755852,000000E4,false,Rx,0,8,0C,FB,86,7F,22,FF,7F,8E,
68756936,00000199,false,Rx,0,6,BD,FB,CA,7E,1D,B0,00,00,
68757924,0000019A,false,Rx,0,6,D2,FB,9A,7E,00,20,00,00,
68758904,0000019F,false,Rx,0,6,A7,FB,0A,80,00,20,00,00,
68760044,00000289,false,Rx,0,8,12,FA,E0,E0,E1,00,0C,00,
68761120,000002BB,false,Rx,0,5,48,FA,00,00,F2,00,00,00,
68762040,0000018F,false,Rx,0,5,2D,81,F1,FF,FF,00,00,00,
68762976,000001A1,false,Rx,0,5,FC,C6,00,00,81,00,00,00,
68763932,000001C4,false,Rx,0,7,00,00,00,00,33,F7,FF,00,
68765052,000001C5,false,Rx,0,7,00,00,00,00,33,F7,FF,00,
68766204,00000302,false,Rx,0,7,FF,FF,2D,81,FF,FF,FF,00,
68793144,0000012F,false,Rx,0,8,5A,26,86,1C,F2,01,30,09,
68795836,000000A5,false,Rx,0,8,40,FA,9B,B7,79,00,00,F1,
68805080,00000130,false,Rx,0,5,00,F0,FC,FF,FF,00,00,00,
68837768,000002BF,false,Rx,0,3,00,00,00,00,00,00,00,00,
68847636,000001A6,false,Rx,0,8,00,00,00,00,00,00,A0,FD,
68849052,00000281,false,Rx,0,2,25,F3,00,00,00,00,00,00,
68850808,00000297,false,Rx,0,7,DD,F6,FC,FC,FC,FC,FC,00,
68855820,000000E4,false,Rx,0,8,EA,F6,86,7F,22,FF,7F,8E,
68856908,00000199,false,Rx,0,6,8B,F6,D0,7E,1D,B0,00,00,
68857892,0000019A,false,Rx,0,6,7A,F6,9A,7E,00,20,00,00,
68858868,0000019F,false,Rx,0,6,29,F6,01,80,00,20,00,00,
68860040,00000289,false,Rx,0,8,C1,FC,E0,E0,E1,00,0C,00,
68861120,000002BB,false,Rx,0,5,21,FC,00,00,F2,00,00,00,
68862040,000001A1,false,Rx,0,5,B3,CB,00,00,81,00,00,00,
68862996,000001C4,false,Rx,0,7,00,00,00,00,3D,F7,FF,00,
68864116,000001C5,false,Rx,0,7,00,00,00,00,3D,F7,FF,00,
68893152,0000012F,false,Rx,0,8,07,27,86,1C,F2,01,30,09,
68895820,000000A5,false,Rx,0,8,28,F0,9B,B7,79,00,00,F1,
68905048,00000130,false,Rx,0,5,00,F0,FC,FF,FF,00,00,00,
68938124,000002BF,false,Rx,0,3,00,00,00,00,00,00,00,00,
68947616,000001A6,false,Rx,0,8,00,00,00,00,00,00,30,FF,
68949008,00000281,false,Rx,0,2,25,F3,00,00,00,00,00,00,
68950204,00000173,false,Rx,0,8,7B,F0,00,0E,30,00,FE,D0,
68951412,000002C4,false,Rx,0,8,00,00,FF,64,64,64,00,F0,
68955812,000000E4,false,Rx,0,8,64,F1,86,7F,22,FF,7F,8E,
68956900,00000199,false,Rx,0,6,EA,F1,CD,7E,1D,B0,00,00,
68957884,0000019A,false,Rx,0,6,56,F1,98,7E,00,20,00,00,
68958868,0000019F,false,Rx,0,6,E3,F1,F8,7F,00,20,00,00,
68959996,00000289,false,Rx,0,8,7B,FE,E0,E0,E1,00,0C,00,
68961072,000002BB,false,Rx,0,5,06,FE,00,00,F2,00,00,00,
68961992,0000018F,false,Rx,0,5,2D,81,F1,FF,FF,00,00,00,
68962920,000001A1,false,Rx,0,5,08,C1,00,00,81,00,00,00,
68963912,000001C4,false,Rx,0,7,00,00,00,00,47,F7,FF,00,
68965044,000001C5,false,Rx,0,7,00,00,00,00,47,F7,FF,00,
68966192,00000302,false,Rx,0,7,FF,FF,2D,81,FF,FF,FF,00,
68993140,0000012F,false,Rx,0,8,E1,28,86,1C,F1,01,30,09,
68995824,000000A5,false,Rx,0,8,1C,F5,9B,B7,79,00,00,F1,
69004996,00000130,false,Rx,0,5,00,F0,FC,FF,FF,00,00,00,
69027776,00000510,false,Rx,0,8,00,00,00,00,FF,FF,00,10,
69038448,000002BF,false,Rx,0,3,00,00,00,00,00,00,00,00,
69047612,000001A6,false,Rx,0,8,00,00,00,00,00,00,C0,F0,
69048996,00000281,false,Rx,0,2,25,F3,00,00,00,00,00,00,
69050104,00000297,false,Rx,0,7,9B,F7,FC,FC,FC,FC,FC,00,
69055840,000000E4,false,Rx,0,8,0C,FB,86,7F,22,FF,7F,8E,
69056924,00000199,false,Rx,0,6,F3,FB,CE,7E,1D,B0,00,00,
69057908,0000019A,false,Rx,0,6,4F,FB,9B,7E,00,20,00,00,
69058888,0000019F,false,Rx,0,6,B6,FB,ED,7F,00,20,00,00,
69060048,00000289,false,Rx,0,8,27,F1,E0,E0,E1,00,0C,00,
69061124,000002BB,false,Rx,0,5,6E,F1,00,00,F2,00,00,00,
69062048,000001A1,false,Rx,0,5,FC,C6,00,00,81,00,00,00,
69063024,000001C4,false,Rx,0,7,00,00,00,00,51,F7,FF,00,
69064156,000001C5,false,Rx,0,7,00,00,00,00,51,F7,FF,00,
69093136,0000012F,false,Rx,0,8,BC,29,86,1C,F1,01,30,09,
69095828,000000A5,false,Rx,0,8,40,FA,9B,B7,79,00,00,F1,
69105008,00000130,false,Rx,0,5,00,F0,FC,FF,FF,00,00,00,
69138788,000002BF,false,Rx,0,3,00,00,00,00,00,00,00,00,
69147620,000001A6,false,Rx,0,8,00,00,00,00,00,00,50,F2,
69149052,00000281,false,Rx,0,2,25,F3,00,00,00,00,00,00,
69150244,00000173,false,Rx,0,8,4F,F5,00,0E,30,00,FE,D0,
69156336,000000E4,false,Rx,0,8,B7,F7,86,7F,22,FF,7F,8E,
69157420,00000199,false,Rx,0,6,7C,F7,D1,7E,1D,B0,00,00,
69158404,0000019A,false,Rx,0,6,78,F7,95,7E,00,20,00,00,
69159388,0000019F,false,Rx,0,6,A5,F7,FA,7F,00,20,00,00,
69160556,00000289,false,Rx,0,8,9D,F3,E0,E0,E1,00,0C,00,
69161640,000002BB,false,Rx,0,5,49,F3,00,00,F2,00,00,00,
69162556,0000018F,false,Rx,0,5,2D,81,F1,FF,FF,00,00,00,
69163484,000001A1,false,Rx,0,5,B3,CB,00,00,81,00,00,00,
69164452,000001C4,false,Rx,0,7,00,00,00,00,5B,F7,FF,00,
69165572,000001C5,false,Rx,0,7,00,00,00,00,5B,F7,FF,00,
69166728,00000302,false,Rx,0,7,FF,FF,2D,81,FF,FF,FF,00,
69193188,0000012F,false,Rx,0,8,5B,2A,86,1C,F1,01,30,09,
69195812,000000A5,false,Rx,0,8,28,F0,9B,B7,79,00,00,F1,
69202248,00000273,false,Rx,0,8,1D,E1,00,F0,FF,7F,DE,05,
69204920,00000130,false,Rx,0,5,00,F0,FC,FF,FF,00,00,00,
69205840,00000277,false,Rx,0,4,E1,9D,05,FF,00,00,00,00,
69239160,000002BF,false,Rx,0,3,00,00,00,00,00,00,00,00,
69247612,000001A6,false,Rx,0,8,00,00,00,00,00,00,E0,F3,
69248692,00000281,false,Rx,0,2,25,F3,00,00,00,00,00,00,
69249804,00000297,false,Rx,0,7,5E,F8,FC,FC,FC,FC,FC,00,
69256348,000000E4,false,Rx,0,8,83,F2,86,7F,22,FF,7F,8E,
69257432,00000199,false,Rx,0,6,73,F2,CF,7E,1D,B0,00,00,
69258420,0000019A,false,Rx,0,6,E8,F2,98,7E,00,20,00,00,
69259400,0000019F,false,Rx,0,6,00,F2,09,80,00,20,00,00,
69260548,00000289,false,Rx,0,8,4E,F5,E0,E0,E1,00,0C,00,
69261632,000002BB,false,Rx,0,5,20,F5,00,00,F2,00,00,00,
69262548,000001A1,false,Rx,0,5,08,C1,00,00,81,00,00,00,
69263536,000001C4,false,Rx,0,7,00,00,00,00,65,F7,FF,00,
69264660,000001C5,false,Rx,0,7,00,00,00,00,65,F7,FF,00,
69279668,000003FB,false,Rx,0,6,C7,90,01,10,F1,48,00,00,
69293116,0000012F,false,Rx,0,8,BC,2B,86,1C,F2,01,30,09,
69295808,000000A5,false,Rx,0,8,1C,F5,9B,B7,79,00,00,F1,
69296988,000003F9,false,Rx,0,8,1C,1A,80,70,7C,44,2F,47,
69305040,00000130,false,Rx,0,5,00,F0,FC,FF,FF,00,00,00,
69339780,000002F9,false,Rx,0,6,00,FF,00,08,FF,F0,00,00,
69340744,000002BF,false,Rx,0,3,00,00,00,00,00,00,00,00,
69342008,000002F7,false,Rx,0,6,02,99,51,11,11,F1,00,00,
69347612,000001A6,false,Rx,0,8,00,00,00,00,00,00,70,F5,
69349008,00000281,false,Rx,0,2,25,F3,00,00,00,00,00,00,
69350216,00000173,false,Rx,0,8,13,FA,00,0E,30,00,FE,D0,
69353160,000002ED,false,Rx,0,3,C5,F6,01,00,00,00,00,00,
69356368,000000E4,false,Rx,0,8,82,FC,86,7F,22,FF,7F,8E,
69357456,00000199,false,Rx,0,6,42,FC,CD,7E,1D,B0,00,00,
69358440,0000019A,false,Rx,0,6,D9,FC,9A,7E,00,20,00,00,
69359420,0000019F,false,Rx,0,6,17,FC,00,80,00,20,00,00,
69360392,00000277,false,Rx,0,4,E1,9D,05,FF,00,00,00,00,
69361408,00000289,false,Rx,0,8,F4,F7,E0,E0,E1,00,0C,00,
69362484,0000018F,false,Rx,0,5,2D,81,F1,FF,FF,00,00,00,
69363416,000001A1,false,Rx,0,5,FC,C6,00,00,81,00,00,00,
69364388,000001C4,false,Rx,0,7,00,00,00,00,6F,F7,FF,00,
69365508,000001C5,false,Rx,0,7,00,00,00,00,6F,F7,FF,00,
69366520,000001EE,false,Rx,0,2,00,FF,00,00,00,00,00,00,
69367280,000002A6,false,Rx,0,2,00,A4,00,00,00,00,00,00,
69368036,000001D6,false,Rx,0,2,F0,CC,00,00,00,00,00,00,
69368800,000001EA,false,Rx,0,2,FF,FF,00,00,00,00,00,00,
69370580,000002BB,false,Rx,0,5,07,F7,00,00,F2,00,00,00,
69371492,000003E6,false,Rx,0,2,FF,FF,00,00,00,00,00,00,
69372268,00000302,false,Rx,0,7,FF,FF,2D,81,FF,FF,FF,00,
69393120,0000012F,false,Rx,0,8,32,2C,86,1C,F2,01,30,09,
69395820,000000A5,false,Rx,0,8,40,FA,9B,B7,79,00,00,F1,
69404992,00000130,false,Rx,0,5,00,F0,FC,FF,FF,00,00,00,
69418728,000005F8,false,Rx,0,8,13,FF,C0,78,FF,FF,FF,FF,
69440004,000002BF,false,Rx,0,3,00,00,00,00,00,00,00,00,
69443060,000000F2,false,Rx,0,8,F1,FF,87,C1,FF,FF,FF,FF,
69447596,000001A6,false,Rx,0,8,00,00,00,00,00,00,00,F7,
69448652,000001B9,false,Rx,0,2,00,FF,00,00,00,00,00,00,
69449404,00000281,false,Rx,0,2,25,F3,00,00,00,00,00,00,
69450192,00000297,false,Rx,0,7,18,F9,FC,FC,FC,FC,FC,00,
69452248,000002C4,false,Rx,0,8,00,00,FF,64,64,64,00,F0,
69456336,000000E4,false,Rx,0,8,B7,F7,86,7F,22,FF,7F,8E,
69457420,00000199,false,Rx,0,6,E1,F7,D0,7E,1D,B0,00,00,
69458408,0000019A,false,Rx,0,6,5F,F7,97,7E,00,20,00,00,
69459388,0000019F,false,Rx,0,6,DE,F7,00,80,00,20,00,00,
69460568,00000289,false,Rx,0,8,F5,F9,E0,E0,E1,00,0C,00,
69461652,000002BB,false,Rx,0,5,F2,F9,00,00,F2,00,00,00,
69462568,000001A1,false,Rx,0,5,B3,CB,00,00,81,00,00,00,
69463528,000001C4,false,Rx,0,7,00,00,00,00,79,F7,FF,00,
69464664,000001C5,false,Rx,0,7,00,00,00,00,79,F7,FF,00,
69493112,0000012F,false,Rx,0,8,D5,2D,86,1C,F1,01,30,09,
69496324,000000A5,false,Rx,0,8,28,F0,9B,B7,79,00,00,F1,
69504896,00000130,false,Rx,0,5,00,F0,FC,FF,FF,00,00,00,
69518792,00000277,false,Rx,0,4,E1,9D,05,FF,00,00,00,00,
69531236,000002CA,false,Rx,0,2,66,70,00,00,00,00,00,00,
69540388,000002BF,false,Rx,0,3,00,00,00,00,00,00,00,00,
69547620,000001A6,false,Rx,0,8,00,00,00,00,00,00,90,F8,
69549036,00000281,false,Rx,0,2,25,F3,00,00,00,00,00,00,
69550236,00000173,false,Rx,0,8,7B,F0,00,0E,30,00,FE,D0,
69556352,000000E4,false,Rx,0,8,83,F2,86,7F,22,FF,7F,8E,
69557436,00000199,false,Rx,0,6,73,F2,CF,7E,1D,B0,00,00,
69558420,0000019A,false,Rx,0,6,3A,F2,94,7E,00,20,00,00,
69559404,0000019F,false,Rx,0,6,C0,F2,F9,7F,00,20,00,00,
69560556,00000289,false,Rx,0,8,4F,FB,E0,E0,E1,00,0C,00,
69561636,000002BB,false,Rx,0,5,D5,FB,00,00,F2,00,00,00,
69562556,0000018F,false,Rx,0,5,2D,81,F1,FF,FF,00,00,00,
69563484,000001A1,false,Rx,0,5,08,C1,00,00,81,00,00,00,
69564468,000001C4,false,Rx,0,7,00,00,00,00,83,F7,FF,00,
69565600,000001C5,false,Rx,0,7,00,00,00,00,83,F7,FF,00,
69566744,00000302,false,Rx,0,7,FF,FF,2D,81,FF,FF,FF,00,
69593124,0000012F,false,Rx,0,8,32,2E,86,1C,F1,01,30,09,
69596420,000000A5,false,Rx,0,8,1C,F5,9B,B7,79,00,00,F1,
69604880,00000130,false,Rx,0,5,00,F0,FC,FF,FF,00,00,00,
69640880,000002BF,false,Rx,0,3,00,00,00,00,00,00,00,00,
69647620,000001A6,false,Rx,0,8,00,00,00,00,00,00,20,FA,
69648996,00000281,false,Rx,0,2,25,F3,00,00,00,00,00,00,
69650116,00000297,false,Rx,0,7,D2,FA,FC,FC,FC,FC,FC,00,
69656356,000000E4,false,Rx,0,8,82,FC,86,7F,22,FF,7F,8E,
69657444,00000199,false,Rx,0,6,B4,FC,CE,7E,1C,B0,00,00,
69658428,0000019A,false,Rx,0,6,FE,FC,98,7E,00,20,00,00,
69659412,0000019F,false,Rx,0,6,23,FC,F7,7F,00,20,00,00,
69660592,00000289,false,Rx,0,8,9C,FD,E0,E0,E1,00,0C,00,
69661668,000002BB,false,Rx,0,5,BC,FD,00,00,F2,00,00,00,
69662592,000001A1,false,Rx,0,5,FC,C6,00,00,81,00,00,00,
69663556,000001C4,false,Rx,0,7,00,00,00,00,8D,F7,FF,00,
69664684,000001C5,false,Rx,0,7,00,00,00,00,8D,F7,FF,00,
69667768,00000510,false,Rx,0,8,00,00,00,00,FF,FF,00,10,
69674784,00000328,false,Rx,0,6,44,44,EF,11,0E,22,00,00,
69691248,000005F2,false,Rx,0,8,08,04,00,02,FF,FF,FF,FF,
69693120,0000012F,false,Rx,0,8,33,20,86,1C,F1,01,30,09,
69695860,000000A5,false,Rx,0,8,40,FA,9B,B7,79,00,00,F1,
69704872,00000130,false,Rx,0,5,00,F0,FC,FF,FF,00,00,00,
69741212,000002BF,false,Rx,0,3,00,00,00,00,00,00,00,00,
69747584,000001A6,false,Rx,0,8,00,00,00,00,00,00,B0,FB,
69748968,00000281,false,Rx,0,2,25,F3,00,00,00,00,00,00,
69750160,00000173,false,Rx,0,8,4F,F5,00,0E,30,00,FE,D0,
69755800,000000E4,false,Rx,0,8,EA,F6,86,7F,22,FF,7F,8E,
69756888,00000199,false,Rx,0,6,5A,F6,D1,7E,1C,B0,00,00,
69757872,0000019A,false,Rx,0,6,C0,F6,99,7E,00,20,00,00,
69758852,0000019F,false,Rx,0,6,81,F6,FE,7F,00,20,00,00,
69760028,00000289,false,Rx,0,8,7A,F0,E0,E0,E1,00,0C,00,
69761104,000002BB,false,Rx,0,5,F3,F0,00,00,F2,00,00,00,
69762020,0000018F,false,Rx,0,5,2D,81,F1,FF,FF,00,00,00,
69762948,000001A1,false,Rx,0,5,B3,CB,00,00,81,00,00,00,
69763936,000001C4,false,Rx,0,7,00,00,00,00,97,F7,FF,00,
69765068,000001C5,false,Rx,0,7,00,00,00,00,97,F7,FF,00,
69766224,00000302,false,Rx,0,7,FF,FF,2D,81,FF,FF,FF,00,
69793092,0000012F,false,Rx,0,8,6E,21,86,1C,F1,01,30,09,
69796540,000000A5,false,Rx,0,8,28,F0,9B,B7,79,00,00,F1,
69804856,00000130,false,Rx,0,5,00,F0,FC,FF,FF,00,00,00,
69841640,000002BF,false,Rx,0,3,00,00,00,00,00,00,00,00,
69847604,000001A6,false,Rx,0,8,00,00,00,00,00,00,40,FD,
69848976,00000297,false,Rx,0,7,94,FB,FC,FC,FC,FC,FC,00,
69850004,00000281,false,Rx,0,2,25,F3,00,00,00,00,00,00,
69856420,000000E4,false,Rx,0,8,83,F2,86,7F,22,FF,7F,8E,
69857508,00000199,false,Rx,0,6,3F,F2,CF,7E,1C,B0,00,00,
69858492,0000019A,false,Rx,0,6,75,F2,99,7E,00,20,00,00,
69859472,0000019F,false,Rx,0,6,D2,F2,05,80,00,20,00,00,
69860624,00000289,false,Rx,0,8,C0,F2,E0,E0,E1,00,0C,00,
69861700,000002BB,false,Rx,0,5,D4,F2,00,00,F2,00,00,00,
69862620,000001A1,false,Rx,0,5,08,C1,00,00,81,00,00,00,
69863588,000001C4,false,Rx,0,7,00,00,00,00,A1,F7,FF,00,
69864708,000001C5,false,Rx,0,7,00,00,00,00,A1,F7,FF,00,
69893096,0000012F,false,Rx,0,8,33,22,86,1C,F2,01,30,09,
69896556,000000A5,false,Rx,0,8,1C,F5,9B,B7,79,00,00,F1,
69904976,00000130,false,Rx,0,5,00,F0,FC,FF,FF,00,00,00,
69941988,000002BF,false,Rx,0,3,00,00,00,00,00,00,00,00,
69947608,000001A6,false,Rx,0,8,00,00,00,00,00,00,D0,FE,
69948972,00000281,false,Rx,0,2,25,F3,00,00,00,00,00,00,
69950184,00000173,false,Rx,0,8,13,FA,00,0E,30,00,FE,D0,
69951396,000002C4,false,Rx,0,8,00,00,FF,64,64,64,00,F0,
69956352,000000E4,false,Rx,0,8,82,FC,86,7F,22,FF,7F,8E,
69957440,00000199,false,Rx,0,6,B4,FC,CE,7E,1C,B0,00,00,
69958424,0000019A,false,Rx,0,6,96,FC,97,7E,00,20,00,00,
69959404,0000019F,false,Rx,0,6,D6,FC,F9,7F,00,20,00,00,
69960580,00000289,false,Rx,0,8,13,F4,E0,E0,E1,00,0C,00,
69961656,000002BB,false,Rx,0,5,BD,F4,00,00,F2,00,00,00,
69962580,0000018F,false,Rx,0,5,2D,81,F1,FF,FF,00,00,00,
69963504,000001A1,false,Rx,0,5,FC,C6,00,00,81,00,00,00,
69964468,000001C4,false,Rx,0,7,00,00,00,00,AB,F7,FF,00,
69965596,000001C5,false,Rx,0,7,00,00,00,00,AB,F7,FF,00,
69966740,00000302,false,Rx,0,7,FF,FF,2D,81,FF,FF,FF,00,
69993084,0000012F,false,Rx,0,8,6E,23,86,1C,F2,01,30,09,
69996472,000000A5,false,Rx,0,8,40,FA,9B,B7,79,00,00,F1,
70004984,00000130,false,Rx,0,5,00,F0,FC,FF,FF,00,00,00,
70042396,000002BF,false,Rx,0,3,00,00,00,00,00,00,00,00,
70047596,000001A6,false,Rx,0,8,00,00,00,00,00,00,60,F0,
70048892,00000297,false,Rx,0,7,5B,FC,FC,FC,FC,FC,FC,00,
70049920,00000281,false,Rx,0,2,25,F3,00,00,00,00,00,00,
70056308,000000E4,false,Rx,0,8,B7,F7,86,7F,22,FF,7F,8E,
70057396,00000199,false,Rx,0,6,7D,F7,CE,7E,1C,B0,00,00,
70058380,0000019A,false,Rx,0,6,79,F7,9C,7E,00,20,00,00,
70059364,0000019F,false,Rx,0,6,CF,F7,E7,7F,00,20,00,00,
70060540,00000289,false,Rx,0,8,A9,F6,E0,E0,E1,00,0C,00,
70061620,000002BB,false,Rx,0,5,9A,F6,00,00,F2,00,00,00,
70062540,000001A1,false,Rx,0,5,B3,CB,00,00,81,00,00,00,
70063500,000001C4,false,Rx,0,7,00,00,00,00,B5,F7,FF,00,
70064636,000001C5,false,Rx,0,7,00,00,00,00,B5,F7,FF,00,
70093064,0000012F,false,Rx,0,8,5A,24,86,1C,F1,01,30,09,
70096304,000000A5,false,Rx,0,8,28,F0,9B,B7,79,00,00,F1,
70104956,00000130,false,Rx,0,5,00,F0,FC,FF,FF,00,00,00,
70142836,000002BF,false,Rx,0,3,00,00,00,00,00,00,00,00,
70147576,000001A6,false,Rx,0,8,00,00,00,00,00,00,F0,F1,
70149032,00000281,false,Rx,0,2,25,F3,00,00,00,00,00,00,
70150240,00000173,false,Rx,0,8,7B,F0,00,0E,30,00,FE,D0,
70156420,000000E4,false,Rx,0,8,83,F2,86,7F,22,FF,7F,8E,
70157504,00000199,false,Rx,0,6,18,F2,CD,7E,1C,B0,00,00,
70158488,0000019A,false,Rx,0,6,80,F2,97,7E,00,20,00,00,
70159472,0000019F,false,Rx,0,6,7A,F2,FA,7F,00,20,00,00,
70160628,00000289,false,Rx,0,8,A8,F8,E0,E0,E1,00,0C,00,
70161704,000002BB,false,Rx,0,5,6F,F8,00,00,F2,00,00,00,
70162628,0000018F,false,Rx,0,5,2D,81,F1,FF,FF,00,00,00,
70163556,000001A1,false,Rx,0,5,08,C1,00,00,81,00,00,00,
70164536,000001C4,false,Rx,0,7,00,00,00,00,BF,F7,FF,00,
70165664,000001C5,false,Rx,0,7,00,00,00,00,BF,F7,FF,00,
70166808,00000302,false,Rx,0,7,FF,FF,2D,81,FF,FF,FF,00,
70193080,0000012F,false,Rx,0,8,07,25,86,1C,F1,01,30,09,
70196404,000000A5,false,Rx,0,8,1C,F5,9B,B7,79,00,00,F1,
70199152,000000E2,false,Rx,0,8,F1,FF,E7,FC,FF,FF,FF,FF,
70200360,000000E6,false,Rx,0,8,F1,FF,E7,FC,FF,FF,FF,FF,
70201568,000000EA,false,Rx,0,8,81,FF,E7,FD,FF,FF,FF,FF,
70202772,000000EE,false,Rx,0,8,F1,FF,E7,FD,FF,FF,FF,FF,
70205232,000002FC,false,Rx,0,7,81,11,01,00,00,00,00,00,
70206488,000000F0,false,Rx,0,8,FC,FF,FF,FF,FF,FF,FF,FF,
70207580,00000130,false,Rx,0,5,00,F0,FC,FF,FF,00,00,00,
70208664,0000026E,false,Rx,0,8,00,00,00,00,FF,FF,FF,FF,
70209732,000003BE,false,Rx,0,3,45,F0,00,00,00,00,00,00,
70232344,000003B5,false,Rx,0,2,FF,00,00,00,00,00,00,00,
70243248,000002BF,false,Rx,0,3,00,00,00,00,00,00,00,00,
70247572,000001A6,false,Rx,0,8,00,00,00,00,00,00,80,F3,
70248664,00000297,false,Rx,0,7,1D,FD,FC,FC,FC,FC,FC,00,
70249688,00000281,false,Rx,0,2,25,F3,00,00,00,00,00,00,
70256332,000000E4,false,Rx,0,8,82,FC,86,7F,22,FF,7F,8E,
70257420,00000199,false,Rx,0,6,29,FC,CF,7E,1C,B0,00,00,
70258404,0000019A,false,Rx,0,6,FE,FC,98,7E,00,20,00,00,
70259384,0000019F,false,Rx,0,6,48,FC,E3,7F,00,20,00,00,
70260560,00000289,false,Rx,0,8,12,FA,E0,E0,E1,00,0C,00,
70261640,000002BB,false,Rx,0,5,48,FA,00,00,F2,00,00,00,
70262560,000001A1,false,Rx,0,5,FC,C6,00,00,81,00,00,00,
70263516,000001C4,false,Rx,0,7,00,00,00,00,C9,F7,FF,00,
70264652,000001C5,false,Rx,0,7,00,00,00,00,C9,F7,FF,00,
70279608,000003FB,false,Rx,0,6,C7,90,01,10,F1,48,00,00,
70280728,000003B3,false,Rx,0,7,1F,00,FF,7F,00,03,F8,00,
70287436,000003A5,false,Rx,0,5,E1,D5,FF,FF,FF,00,00,00,
70293132,0000012F,false,Rx,0,8,E0,26,86,1C,F1,01,30,09,
70296420,000000A5,false,Rx,0,8,40,FA,9B,B7,79,00,00,F1,
70297880,000003F9,false,Rx,0,8,41,1B,80,70,7C,44,2F,47,
70304876,00000130,false,Rx,0,5,00,F0,FC,FF,FF,00,00,00,
70307752,00000510,false,Rx,0,8,00,00,00,00,FF,FF,00,10,
70341884,000002F7,false,Rx,0,6,02,99,51,11,11,F1,00,00,
70344160,000002F9,false,Rx,0,6,00,FF,00,08,FF,F0,00,00,
70345124,000002BF,false,Rx,0,3,00,00,00,00,00,00,00,00,
70347580,000001A6,false,Rx,0,8,00,00,00,00,00,00,10,F5,
70349004,00000281,false,Rx,0,2,25,F3,00,00,00,00,00,00,
70350192,00000173,false,Rx,0,8,4F,F5,00,0E,30,00,FE,D0,
70353120,000002ED,false,Rx,0,3,89,F7,01,00,00,00,00,00,
70356304,000000E4,false,Rx,0,8,B7,F7,86,7F,22,FF,7F,8E,
70357392,00000199,false,Rx,0,6,E0,F7,CF,7E,1C,B0,00,00,
70358376,0000019A,false,Rx,0,6,37,F7,98,7E,00,20,00,00,
70359516,000000E2,false,Rx,0,8,F1,FF,E7,FC,FF,FF,FF,FF,
70360716,000000E6,false,Rx,0,8,F1,FF,E7,FC,FF,FF,FF,FF,
70361928,000000EA,false,Rx,0,8,81,FF,E7,FD,FF,FF,FF,FF,
70363144,000000EE,false,Rx,0,8,F1,FF,E7,FD,FF,FF,FF,FF,
70364228,0000018F,false,Rx,0,5,2D,81,F1,FF,FF,00,00,00,
70365152,0000019F,false,Rx,0,6,64,F7,03,80,00,20,00,00,
70366132,000001A1,false,Rx,0,5,B3,CB,00,00,81,00,00,00,
70367132,000001C4,false,Rx,0,7,00,00,00,00,D3,F7,FF,00,
70368252,000001C5,false,Rx,0,7,00,00,00,00,D3,F7,FF,00,
70369264,000001D6,false,Rx,0,2,F0,CC,00,00,00,00,00,00,
70370028,000001EA,false,Rx,0,2,FF,FF,00,00,00,00,00,00,
70370796,000001EE,false,Rx,0,2,00,FF,00,00,00,00,00,00,
70372596,00000289,false,Rx,0,8,C1,FC,E0,E0,E1,00,0C,00,
70373672,000002BB,false,Rx,0,5,21,FC,00,00,F2,00,00,00,
70374604,00000302,false,Rx,0,7,FF,FF,2D,81,FF,FF,FF,00,
70375628,000003E6,false,Rx,0,2,FF,FF,00,00,00,00,00,00,
70376380,000002A6,false,Rx,0,2,00,AC,00,00,00,00,00,00,
70393068,0000012F,false,Rx,0,8,07,27,86,1C,F2,01,30,09,
70396296,000000A5,false,Rx,0,8,28,F0,9B,B7,79,00,00,F1,
70404988,00000130,false,Rx,0,5,00,F0,FC,FF,FF,00,00,00,
70414948,000002A0,false,Rx,0,8,88,88,88,01,FF,FF,FF,FF,
70422916,000005F8,false,Rx,0,8,13,FF,C0,78,FF,FF,FF,FF,
70444148,000002BF,false,Rx,0,3,00,00,00,00,00,00,00,00,
70447572,000001A6,false,Rx,0,8,00,00,00,00,00,00,A0,F6,
70448684,00000297,false,Rx,0,7,D7,FE,FC,FC,FC,FC,FC,00,
70449712,000001B9,false,Rx,0,2,00,FF,00,00,00,00,00,00,
70451480,00000281,false,Rx,0,2,25,F3,00,00,00,00,00,00,
70452260,000002C4,false,Rx,0,8,00,00,FF,64,64,64,00,F0,
70456308,000000E4,false,Rx,0,8,83,F2,86,7F,22,FF,7F,8E,
70457400,00000199,false,Rx,0,6,18,F2,CD,7E,1C,B0,00,00,
70458384,0000019A,false,Rx,0,6,CF,F2,9A,7E,00,20,00,00,
70459360,0000019F,false,Rx,0,6,C0,F2,F9,7F,00,20,00,00,
70460552,00000289,false,Rx,0,8,7B,FE,E0,E0,E1,00,0C,00,
70461628,000002BB,false,Rx,0,5,06,FE,00,00,F2,00,00,00,
70462548,000001A1,false,Rx,0,5,08,C1,00,00,81,00,00,00,
70463552,000001C4,false,Rx,0,7,00,00,00,00,DD,F7,FF,00,
70464684,000001C5,false,Rx,0,7,00,00,00,00,DD,F7,FF,00,
70493044,0000012F,false,Rx,0,8,5B,28,86,1C,F2,01,30,09,
70496300,000000A5,false,Rx,0,8,1C,F5,9B,B7,79,00,00,F1,
70504924,00000130,false,Rx,0,5,00,F0,FC,FF,FF,00,00,00,
70519116,000000E2,false,Rx,0,8,F1,FF,E7,FC,FF,FF,FF,FF,
70520316,000000E6,false,Rx,0,8,F1,FF,E7,FC,FF,FF,FF,FF,
70521524,000000EA,false,Rx,0,8,81,FF,E7,FD,FF,FF,FF,FF,
70522732,000000EE,false,Rx,0,8,F1,FF,E7,FD,FF,FF,FF,FF,
70523940,000000E2,false,Rx,0,8,F1,FF,E7,FC,FF,FF,FF,FF,
70525136,000000E6,false,Rx,0,8,F1,FF,E7,FC,FF,FF,FF,FF,
70526348,000000EA,false,Rx,0,8,81,FF,E7,FD,FF,FF,FF,FF,
70527552,000000EC,false,Rx,0,8,11,11,05,00,01,08,FF,FF,
70528760,000000EE,false,Rx,0,8,F1,FF,E7,FD,FF,FF,FF,FF,
70529836,000003AC,false,Rx,0,2,FE,CF,00,00,00,00,00,00,
70531612,000002CA,false,Rx,0,2,66,70,00,00,00,00,00,00,
70544508,000002BF,false,Rx,0,3,00,00,00,00,00,00,00,00,
70547564,000001A6,false,Rx,0,8,00,00,00,00,00,00,30,F8,
70549004,00000281,false,Rx,0,2,25,F3,00,00,00,00,00,00,
70550212,00000173,false,Rx,0,8,13,FA,00,0E,30,00,FE,D0,
70556324,000000E4,false,Rx,0,8,82,FC,86,7F,22,FF,7F,8E,
70557408,00000199,false,Rx,0,6,B4,FC,CE,7E,1C,B0,00,00,
70558392,0000019A,false,Rx,0,6,96,FC,97,7E,00,20,00,00,
70559376,0000019F,false,Rx,0,6,8A,FC,01,80,00,20,00,00,
70560556,00000289,false,Rx,0,8,27,F1,E0,E0,E1,00,0C,00,
70561636,000002BB,false,Rx,0,5,6E,F1,00,00,F2,00,00,00,
70562556,0000018F,false,Rx,0,5,2D,81,F1,FF,FF,00,00,00,
70563480,000001A1,false,Rx,0,5,FC,C6,00,00,81,00,00,00,
70564452,000001C4,false,Rx,0,7,00,00,00,00,E7,F7,FF,00,
70565576,000001C5,false,Rx,0,7,00,00,00,00,E7,F7,FF,00,
70566720,00000302,false,Rx,0,7,FF,FF,2D,81,FF,FF,FF,00,
70593056,0000012F,false,Rx,0,8,BC,29,86,1C,F1,01,30,09,
70596308,000000A5,false,Rx,0,8,40,FA,9B,B7,79,00,00,F1,
70604852,00000130,false,Rx,0,5,00,F0,FC,FF,FF,00,00,00,
70644876,000002BF,false,Rx,0,3,00,00,00,00,00,00,00,00,
70647568,000001A6,false,Rx,0,8,00,00,00,00,00,00,C0,F9,
70648644,00000297,false,Rx,0,7,54,F0,FC,FC,FC,FC,FC,00,
70649672,00000281,false,Rx,0,2,25,F3,00,00,00,00,00,00,
70656288,000000E4,false,Rx,0,8,B7,F7,86,7F,22,FF,7F,8E,
70657372,00000199,false,Rx,0,6,7D,F7,CE,7E,1C,B0,00,00,
70658360,0000019A,false,Rx,0,6,AA,F7,99,7E,00,20,00,00,
70659340,0000019F,false,Rx,0,6,CC,F7,FC,7F,00,20,00,00,
70660496,00000289,false,Rx,0,8,9D,F3,E0,E0,E1,00,0C,00,
70661580,000002BB,false,Rx,0,5,49,F3,00,00,F2,00,00,00,
70662496,000001A1,false,Rx,0,5,B3,CB,00,00,81,00,00,00,
70663468,000001C4,false,Rx,0,7,00,00,00,00,F1,F7,FF,00,
70664596,000001C5,false,Rx,0,7,00,00,00,00,F1,F7,FF,00,
70674660,00000328,false,Rx,0,6,45,44,EF,11,0E,22,00,00,
70679252,000005E7,false,Rx,0,8,99,01,0A,0B,01,00,00,00,
70693044,0000012F,false,Rx,0,8,5B,2A,86,1C,F1,01,30,09,
70696284,000000A5,false,Rx,0,8,28,F0,9B,B7,79,00,00,F1,
70704824,00000130,false,Rx,0,5,00,F0,FC,FF,FF,00,00,00,
70719264,000003A0,false,Rx,0,8,FF,FF,C0,FF,FF,FF,FF,FC,
70729132,00000393,false,Rx,0,4,3F,32,00,FE,00,00,00,00,
70745240,000002BF,false,Rx,0,3,00,00,00,00,00,00,00,00,
70747576,000001A6,false,Rx,0,8,00,00,00,00,00,00,50,FB,
70748976,00000281,false,Rx,0,2,25,F3,00,00,00,00,00,00,
70750176,00000173,false,Rx,0,8,7B,F0,00,0E,30,00,FE,D0,
70756296,000000E4,false,Rx,0,8,83,F2,86,7F,22,FF,7F,8E,
70757388,00000199,false,Rx,0,6,A2,F2,CE,7E,1C,B0,00,00,
70758368,0000019A,false,Rx,0,6,CF,F2,9A,7E,00,20,00,00,
70759348,0000019F,false,Rx,0,6,12,F2,F5,7F,00,20,00,00,
70760500,00000289,false,Rx,0,8,4E,F5,E0,E0,E1,00,0C,00,
70761584,000002BB,false,Rx,0,5,20,F5,00,00,F2,00,00,00,
70762496,0000018F,false,Rx,0,5,2D,81,F1,FF,FF,00,00,00,
70763424,000001A1,false,Rx,0,5,08,C1,00,00,81,00,00,00,
70764420,000001C4,false,Rx,0,7,00,00,00,00,FB,F7,FF,00,
70765556,000001C5,false,Rx,0,7,00,00,00,00,FB,F7,FF,00,
70766708,00000302,false,Rx,0,7,FF,FF,2D,81,FF,FF,FF,00,
70793036,0000012F,false,Rx,0,8,06,2B,86,1C,F1,01,30,09,
70796288,000000A5,false,Rx,0,8,1C,F5,9B,B7,79,00,00,F1,
70804788,00000130,false,Rx,0,5,00,F0,FC,FF,FF,00,00,00,
70845708,000002BF,false,Rx,0,3,00,00,00,00,00,00,00,00,
70847576,000001A6,false,Rx,0,8,00,00,00,00,00,00,E0,FC,
70848652,00000297,false,Rx,0,7,12,F1,FC,FC,FC,FC,FC,00,
70849680,00000281,false,Rx,0,2,25,F3,00,00,00,00,00,00,
70856316,000000E4,false,Rx,0,8,82,FC,86,7F,22,FF,7F,8E,
70857404,00000199,false,Rx,0,6,0E,FC,CD,7E,1C,B0,00,00,
70858384,0000019A,false,Rx,0,6,D9,FC,9A,7E,00,20,00,00,
70859364,0000019F,false,Rx,0,6,D6,FC,F9,7F,00,20,00,00,
70860552,00000289,false,Rx,0,8,F4,F7,E0,E0,E1,00,0C,00,
70861628,000002BB,false,Rx,0,5,07,F7,00,00,F2,00,00,00,
70862548,000001A1,false,Rx,0,5,FC,C6,00,00,81,00,00,00,
70863528,000001C4,false,Rx,0,7,00,00,00,00,05,F8,FF,00,
70864660,000001C5,false,Rx,0,7,00,00,00,00,05,F8,FF,00,
70893040,0000012F,false,Rx,0,8,88,2C,86,1C,F1,01,30,09,
70896300,000000A5,false,Rx,0,8,40,FA,9B,B7,79,00,00,F1,
70904944,00000130,false,Rx,0,5,00,F0,FC,FF,FF,00,00,00,
70946080,000002BF,false,Rx,0,3,00,00,00,00,00,00,00,00,
70947612,000001A6,false,Rx,0,8,00,00,00,00,00,00,70,FE,
70948856,00000510,false,Rx,0,8,00,00,00,00,FF,FF,00,10,
70950032,00000173,false,Rx,0,8,4F,F5,00,0E,30,00,FE,D0,
70951100,00000281,false,Rx,0,2,25,F3,00,00,00,00,00,00,
70951896,000002C4,false,Rx,0,8,00,00,FF,64,64,64,00,F0,
70956288,000000E4,false,Rx,0,8,B7,F7,86,7F,22,FF,7F,8E,
70957376,00000199,false,Rx,0,6,AD,F7,D0,7E,1C,B0,00,00,
70958360,0000019A,false,Rx,0,6,5F,F7,97,7E,00,20,00,00,
70959340,0000019F,false,Rx,0,6,0C,F7,0C,80,00,20,00,00,
70960512,00000289,false,Rx,0,8,F5,F9,E0,E0,E1,00,0C,00,
70961588,000002BB,false,Rx,0,5,F2,F9,00,00,F2,00,00,00,
70962512,0000018F,false,Rx,0,5,2D,81,F1,FF,FF,00,00,00,
70963436,000001A1,false,Rx,0,5,B3,CB,00,00,81,00,00,00,
70964392,000001C4,false,Rx,0,7,00,00,00,00,0F,F8,FF,00,
70965520,000001C5,false,Rx,0,7,00,00,00,00,0F,F8,FF,00,
70966664,00000302,false,Rx,0,7,FF,FF,2D,81,FF,FF,FF,00,
70993024,0000012F,false,Rx,0,8,6F,2D,86,1C,F2,01,30,09,
70996276,000000A5,false,Rx,0,8,28,F0,9B,B7,79,00,00,F1,
71004928,00000130,false,Rx,0,5,00,F0,FC,FF,FF,00,00,00,
71046584,000002BF,false,Rx,0,3,00,00,00,00,00,00,00,00,
71047816,000001A6,false,Rx,0,8,00,00,00,00,00,00,00,F0,
71048904,00000297,false,Rx,0,7,D8,F2,FC,FC,FC,FC,FC,00,
71049928,00000281,false,Rx,0,2,25,F3,00,00,00,00,00,00,
71056288,000000E4,false,Rx,0,8,83,F2,86,7F,22,FF,7F,8E,
71057372,00000199,false,Rx,0,6,72,F2,D0,7E,1C,B0,00,00,
71058356,0000019A,false,Rx,0,6,CF,F2,9A,7E,00,20,00,00,
71059340,0000019F,false,Rx,0,6,4F,F2,04,80,00,20,00,00,
71060536,00000289,false,Rx,0,8,4F,FB,E0,E0,E1,00,0C,00,
71061616,000002BB,false,Rx,0,5,D5,FB,00,00,F2,00,00,00,
71062536,000001A1,false,Rx,0,5,08,C1,00,00,81,00,00,00,
71063508,000001C4,false,Rx,0,7,00,00,00,00,19,F8,FF,00,
71064636,000001C5,false,Rx,0,7,00,00,00,00,19,F8,FF,00,
71065888,000005F8,false,Rx,0,8,0D,00,00,00,00,FF,FF,FF,
71079892,000002CE,false,Rx,0,3,80,80,F0,00,00,00,00,00,
71093016,0000012F,false,Rx,0,8,88,2E,86,1C,F2,01,30,09,
71096276,000000A5,false,Rx,0,8,1C,F5,9B,B7,79,00,00,F1,
71097360,0000033A,false,Rx,0,5,38,4A,81,02,0C,00,00,00,
71104912,00000130,false,Rx,0,5,00,F0,FC,FF,FF,00,00,00,
71146920,000002BF,false,Rx,0,3,00,00,00,00,00,00,00,00,
71148144,000001A6,false,Rx,0,8,00,00,00,00,00,00,90,F1,
71149204,00000281,false,Rx,0,2,25,F3,00,00,00,00,00,00,
71150164,00000173,false,Rx,0,8,13,FA,00,0E,30,00,FE,D0,
71156304,000000E4,false,Rx,0,8,82,FC,86,7F,22,FF,7F,8E,
71157392,00000199,false,Rx,0,6,0E,FC,CD,7E,1C,B0,00,00,
71158372,0000019A,false,Rx,0,6,63,FC,99,7E,00,20,00,00,
71159356,0000019F,false,Rx,0,6,30,FC,02,80,00,20,00,00,
71160548,00000289,false,Rx,0,8,9C,FD,E0,E0,E1,00,0C,00,
71161628,000002BB,false,Rx,0,5,BC,FD,00,00,F2,00,00,00,
71162548,0000018F,false,Rx,0,5,2D,81,F1,FF,FF,00,00,00,
71163472,000001A1,false,Rx,0,5,FC,C6,00,00,81,00,00,00,
71164420,000001C4,false,Rx,0,7,00,00,00,00,23,F8,FF,00,
71165548,000001C5,false,Rx,0,7,00,00,00,00,23,F8,FF,00,
71166692,00000302,false,Rx,0,7,FF,FF,2D,81,FF,FF,FF,00,
71193044,0000012F,false,Rx,0,8,33,20,86,1C,F1,01,30,09,
71196284,000000A5,false,Rx,0,8,40,FA,9B,B7,79,00,00,F1,
71204880,00000130,false,Rx,0,5,00,F0,FC,FF,FF,00,00,00,
71247480,00000297,false,Rx,0,7,9E,F3,FC,FC,FC,FC,FC,00,
71248724,000001A6,false,Rx,0,8,00,00,00,00,00,00,20,F3,
71249784,00000281,false,Rx,0,2,25,F3,00,00,00,00,00,00,
71251564,000002BF,false,Rx,0,3,00,00,00,00,00,00,00,00,
71256264,000000E4,false,Rx,0,8,B7,F7,86,7F,22,FF,7F,8E,
71257352,00000199,false,Rx,0,6,7D,F7,CE,7E,1C,B0,00,00,
71258336,0000019A,false,Rx,0,6,5F,F7,97,7E,00,20,00,00,
71259324,0000019F,false,Rx,0,6,82,F7,F8,7F,00,20,00,00,
71260508,00000289,false,Rx,0,8,7A,F0,E0,E0,E1,00,0C,00,
71261584,000002BB,false,Rx,0,5,F3,F0,00,00,F2,00,00,00,
71262504,000001A1,false,Rx,0,5,B3,CB,00,00,81,00,00,00,
71263488,000001C4,false,Rx,0,7,00,00,00,00,2D,F8,FF,00,
71264612,000001C5,false,Rx,0,7,00,00,00,00,2D,F8,FF,00,
71279592,000003FB,false,Rx,0,6,C7,90,01,10,F1,48,00,00,
71293008,0000012F,false,Rx,0,8,6E,21,86,1C,F1,01,30,09,
71296372,000000A5,false,Rx,0,8,28,F0,9B,B7,79,00,00,F1,
71297672,000003F9,false,Rx,0,8,CF,1C,80,70,7C,44,2F,47,
71304884,00000130,false,Rx,0,5,00,F0,FC,FF,FF,00,00,00,
71341852,000002F7,false,Rx,0,6,02,99,51,11,11,F1,00,00,
71347516,000001A6,false,Rx,0,8,00,00,00,00,00,00,B0,F4,
71348588,000002F9,false,Rx,0,6,00,FF,00,08,FF,F0,00,00,
71349548,00000281,false,Rx,0,2,25,F3,00,00,00,00,00,00,
71350388,00000173,false,Rx,0,8,7B,F0,00,0E,30,00,FE,D0,
71351460,000002BF,false,Rx,0,3,00,00,00,00,00,00,00,00,
71353080,000002ED,false,Rx,0,3,2A,F8,01,00,00,00,00,00,
71356276,000000E4,false,Rx,0,8,83,F2,86,7F,22,FF,7F,8E,
71357364,00000199,false,Rx,0,6,3F,F2,CF,7E,1C,B0,00,00,
71358348,0000019A,false,Rx,0,6,E8,F2,98,7E,00,20,00,00,
71359328,0000019F,false,Rx,0,6,00,F2,09,80,00,20,00,00,
71360468,00000289,false,Rx,0,8,C0,F2,E0,E0,E1,00,0C,00,
71361556,000002BB,false,Rx,0,5,D4,F2,00,00,F2,00,00,00,
71362468,0000018F,false,Rx,0,5,2D,81,F1,FF,FF,00,00,00,
71363396,000001A1,false,Rx,0,5,08,C1,00,00,81,00,00,00,
71364348,000001C4,false,Rx,0,7,00,00,00,00,37,F8,FF,00,
71365460,000001C5,false,Rx,0,7,00,00,00,00,37,F8,FF,00,
71366472,000001EE,false,Rx,0,2,00,FF,00,00,00,00,00,00,
71367228,000002A6,false,Rx,0,2,00,B4,00,00,00,00,00,00,
71367988,000001D6,false,Rx,0,2,F0,CC,00,00,00,00,00,00,
71368756,000001EA,false,Rx,0,2,FF,FF,00,00,00,00,00,00,
71370540,00000302,false,Rx,0,7,FF,FF,2D,81,FF,FF,FF,00,
71371564,000003E6,false,Rx,0,2,FF,FF,00,00,00,00,00,00,
71393044,0000012F,false,Rx,0,8,89,22,86,1C,F1,01,30,09,
71396264,000000A5,false,Rx,0,8,1C,F5,9B,B7,79,00,00,F1,
71404892,00000130,false,Rx,0,5,00,F0,FC,FF,FF,00,00,00,
71426912,000005F8,false,Rx,0,8,13,FF,C0,78,FF,FF,FF,FF,
71447120,00000297,false,Rx,0,7,51,F4,FC,FC,FC,FC,FC,00,
71448364,000001A6,false,Rx,0,8,00,00,00,00,00,00,40,F6,
71449420,000001B9,false,Rx,0,2,00,FF,00,00,00,00,00,00,
71450180,00000281,false,Rx,0,2,25,F3,00,00,00,00,00,00,
71450944,000002BF,false,Rx,0,3,00,00,00,00,00,00,00,00,
71451772,000002C4,false,Rx,0,8,00,00,FF,64,64,64,00,F0,
71456296,000000E4,false,Rx,0,8,82,FC,86,7F,22,FF,7F,8E,
71457380,00000199,false,Rx,0,6,29,FC,CF,7E,1C,B0,00,00,
71458364,0000019A,false,Rx,0,6,0B,FC,96,7E,00,20,00,00,
71459344,0000019F,false,Rx,0,6,BE,FC,F6,7F,00,20,00,00,
71460540,00000289,false,Rx,0,8,13,F4,E0,E0,E1,00,0C,00,
71461616,000002BB,false,Rx,0,5,BD,F4,00,00,F2,00,00,00,
71462540,000001A1,false,Rx,0,5,FC,C6,00,00,81,00,00,00,
71463500,000001C4,false,Rx,0,7,00,00,00,00,41,F8,FF,00,
71464628,000001C5,false,Rx,0,7,00,00,00,00,41,F8,FF,00,
71492996,0000012F,false,Rx,0,8,6E,23,86,1C,F2,01,30,09,
71496272,000000A5,false,Rx,0,8,40,FA,9B,B7,79,00,00,F1,
71504948,00000130,false,Rx,0,5,00,F0,FC,FF,FF,00,00,00,
71530988,000002CA,false,Rx,0,2,66,71,00,00,00,00,00,00,
71547536,000001A6,false,Rx,0,8,00,00,00,00,00,00,D0,F7,
71548596,000002BF,false,Rx,0,3,00,00,00,00,00,00,00,00,
71549396,00000281,false,Rx,0,2,25,F3,00,00,00,00,00,00,
71550368,00000173,false,Rx,0,8,4F,F5,00,0E,30,00,FE,D0,
71556348,000000E4,false,Rx,0,8,B7,F7,86,7F,22,FF,7F,8E,
71557436,00000199,false,Rx,0,6,E0,F7,CF,7E,1C,B0,00,00,
71558420,0000019A,false,Rx,0,6,AA,F7,99,7E,00,20,00,00,
71559400,0000019F,false,Rx,0,6,51,F7,FD,7F,00,20,00,00,
71560568,00000289,false,Rx,0,8,A9,F6,E0,E0,E1,00,0C,00,
